(1703560121.247259) can0 0070F4B5#0000B5
(1703560121.747871) can0 0070F4B5#0000B5
(1703560122.246935) can0 0070F4B5#0000B5
(1703560122.747904) can0 0070F4B5#0000B5
(1703560123.248381) can0 0070F4B5#0000B5
(1703560123.747242) can0 0070F4B5#0000B5
(1703560124.246373) can0 0070F4B5#0000B5
(1703560124.746835) can0 0070F4B5#0000B5
(1703560125.246835) can0 0070F4B5#0000B5
(1703560125.751631) can0 0070F4B5#0000B5
(1703560126.255177) can0 0070F4B5#0000B5
(1703560126.748033) can0 0070F4B5#0000B5
(1703560127.487397) can0 1826F456#010100
(1703560127.502088) can0 182756F4#A510
(1703560127.737393) can0 1826F456#010100
(1703560127.759994) can0 182756F4#A510
(1703560127.994654) can0 1826F456#010100
(1703560128.002178) can0 182756F4#A510
(1703560128.237429) can0 1826F456#010100
(1703560128.251932) can0 182756F4#A510
(1703560128.486707) can0 1826F456#010100
(1703560128.503646) can0 182756F4#A510
(1703560128.737002) can0 1826F456#010100
(1703560128.752145) can0 182756F4#A510
(1703560128.986616) can0 1826F456#010100
(1703560129.001769) can0 182756F4#A510
(1703560129.236239) can0 1826F456#010100
(1703560129.252076) can0 182756F4#A510
(1703560129.486835) can0 1826F456#010100
(1703560129.501757) can0 182756F4#A510
(1703560129.737162) can0 1826F456#010100
(1703560129.774718) can0 182756F4#A510
(1703560129.988693) can0 1826F456#010100
(1703560130.006157) can0 182756F4#A510
(1703560130.237220) can0 1826F456#010100
(1703560130.252040) can0 182756F4#A510
(1703560130.487434) can0 1826F456#010100
(1703560130.501966) can0 182756F4#A510
(1703560130.736834) can0 1826F456#010100
(1703560130.752010) can0 182756F4#A510
(1703560130.986861) can0 1826F456#010100
(1703560131.002048) can0 182756F4#A510
(1703560131.236412) can0 1826F456#010100
(1703560131.251920) can0 182756F4#A510
(1703560131.489235) can0 1826F456#010100
(1703560131.502250) can0 182756F4#A510
(1703560131.737863) can0 1826F456#010100
(1703560131.753018) can0 182756F4#A510
(1703560131.987782) can0 1826F456#010100
(1703560132.001962) can0 182756F4#A510
(1703560132.243235) can0 1826F456#010100
(1703560132.259266) can0 182756F4#A510
(1703560132.487686) can0 1826F456#010100
(1703560132.502034) can0 182756F4#A510
(1703560132.736970) can0 1826F456#010100
(1703560132.752984) can0 182756F4#A510
(1703560132.987466) can0 1826F456#010100
(1703560133.001948) can0 182756F4#A510
(1703560133.237559) can0 1826F456#010100
(1703560133.252041) can0 182756F4#A510
(1703560133.486545) can0 1826F456#010100
(1703560133.501823) can0 182756F4#A510
(1703560133.737262) can0 1826F456#010100
(1703560133.752893) can0 182756F4#A510
(1703560133.991632) can0 1826F456#010100
(1703560134.003440) can0 182756F4#A510
(1703560134.237504) can0 1826F456#010100
(1703560134.251723) can0 182756F4#A510
(1703560134.487384) can0 1826F456#010100
(1703560134.501824) can0 182756F4#A510
(1703560134.736986) can0 1826F456#010100
(1703560134.751876) can0 182756F4#A510
(1703560134.986430) can0 1826F456#010100
(1703560135.001518) can0 182756F4#A510
(1703560135.236701) can0 1826F456#010100
(1703560135.251835) can0 182756F4#A510
(1703560135.487308) can0 1826F456#010100
(1703560135.501793) can0 182756F4#A510
(1703560135.739364) can0 1826F456#010100
(1703560135.751384) can0 182756F4#A510
(1703560135.989304) can0 1826F456#010100
(1703560136.001753) can0 182756F4#A510
(1703560136.236934) can0 1826F456#010100
(1703560136.251724) can0 182756F4#A510
(1703560136.487230) can0 1826F456#010100
(1703560136.501734) can0 182756F4#A510
(1703560136.737664) can0 1826F456#010100
(1703560136.751560) can0 182756F4#A510
(1703560136.987198) can0 1826F456#010100
(1703560137.001770) can0 182756F4#A510
(1703560137.236273) can0 1826F456#010100
(1703560137.251621) can0 182756F4#A510
(1703560137.486936) can0 1826F456#010100
(1703560137.523441) can0 182756F4#A510
(1703560137.737769) can0 1826F456#010100
(1703560137.751483) can0 182756F4#A510
(1703560137.988082) can0 1826F456#010100
(1703560138.001444) can0 182756F4#A510
(1703560138.236859) can0 1826F456#010100
(1703560138.251774) can0 182756F4#A510
(1703560138.487359) can0 1826F456#010100
(1703560138.502043) can0 182756F4#A510
(1703560138.736343) can0 1826F456#010100
(1703560138.751739) can0 182756F4#A510
(1703560138.987033) can0 1826F456#010100
(1703560139.013330) can0 182756F4#A510
(1703560139.237832) can0 1826F456#010100
(1703560139.251971) can0 182756F4#A510
(1703560139.487400) can0 1826F456#010100
(1703560139.501800) can0 182756F4#A510
(1703560139.736632) can0 1826F456#010100
(1703560139.751717) can0 182756F4#A510
(1703560139.987001) can0 1826F456#010100
(1703560140.001701) can0 182756F4#A510
(1703560140.236269) can0 1826F456#010100
(1703560140.261992) can0 182756F4#A510
(1703560140.486919) can0 1826F456#010100
(1703560140.501538) can0 182756F4#A510
(1703560140.737036) can0 1826F456#010100
(1703560140.751630) can0 182756F4#A510
(1703560140.992571) can0 1826F456#010100
(1703560141.001703) can0 182756F4#A510
(1703560141.237646) can0 1826F456#010100
(1703560141.251719) can0 182756F4#A510
(1703560141.488303) can0 1826F456#010100
(1703560141.501598) can0 182756F4#A510
(1703560141.737489) can0 1826F456#010100
(1703560141.751505) can0 182756F4#A510
(1703560141.987818) can0 1826F456#010100
(1703560142.008064) can0 182756F4#A510
(1703560142.240965) can0 1826F456#010100
(1703560142.253532) can0 182756F4#A510
(1703560142.486921) can0 1826F456#010100
(1703560142.501912) can0 182756F4#A510
(1703560142.749380) can0 1826F456#010100
(1703560142.751533) can0 182756F4#A510
(1703560142.986970) can0 1826F456#010100
(1703560143.001388) can0 182756F4#A510
(1703560143.237332) can0 1826F456#010100
(1703560143.251243) can0 182756F4#A510
(1703560143.486454) can0 1826F456#010100
(1703560143.501368) can0 182756F4#A510
(1703560143.736679) can0 1826F456#010100
(1703560143.751569) can0 182756F4#A510
(1703560143.987524) can0 1801F456#0001010101313233
(1703560144.001411) can0 182756F4#A510
(1703560144.012829) can0 1CEC56F4#10310007FF000200
(1703560144.013256) can0 1CECF456#110701FFFF000200
(1703560144.021202) can0 1CEB56F4#0101010003F00540
(1703560144.031198) can0 1CEB56F4#020E010000000100
(1703560144.040964) can0 1CEB56F4#030000630B089500
(1703560144.057205) can0 1CEB56F4#040001FF4C314E53
(1703560144.065088) can0 1CEB56F4#0550474839384E41
(1703560144.070972) can0 1CEB56F4#0631393632303200
(1703560144.080982) can0 1CEB56F4#070104E707FFFF00
(1703560144.081723) can0 1CECF456#13310007FF000200
(1703560144.083267) can0 1801F456#AA01010101313233
(1703560144.091660) can0 1CEC56F4#100D0002FF000600
(1703560144.092500) can0 1CECF456#110201FFFF000600
(1703560144.103141) can0 1CEB56F4#017201DA052A02A5
(1703560144.111734) can0 1CEB56F4#0210730803C60EFF
(1703560144.112622) can0 1CECF456#130D0002FF000600
(1703560144.117038) can0 1807F456#FFFFFFFFFFFFFF
(1703560144.117287) can0 1808F456#1C257C01DC05A00F
(1703560144.131453) can0 100956F4#00
(1703560144.367259) can0 1808F456#1C257C01DC05A00F
(1703560144.382566) can0 100956F4#00
(1703560144.616901) can0 1807F456#FFFFFFFFFFFFFF
(1703560144.628336) can0 1808F456#1C257C01DC05A00F
(1703560144.631383) can0 100956F4#00
(1703560144.881372) can0 100956F4#00
(1703560144.889029) can0 1808F456#1C257C01DC05A00F
(1703560145.142951) can0 1807F456#FFFFFFFFFFFFFF
(1703560145.143039) can0 100956F4#00
(1703560145.148399) can0 1808F456#1C257C01DC05A00F
(1703560145.381347) can0 100956F4#AA
(1703560145.386861) can0 100AF456#00
(1703560145.456621) can0 100AF456#AA
(1703560145.482817) can0 181056F4#A510D80E02
(1703560145.491600) can0 1CEC56F4#10090002FF001100
(1703560145.492794) can0 1CECF456#110201FFFF001100
(1703560145.501067) can0 1CEB56F4#01C50EA00F4C614D
(1703560145.511256) can0 1CEB56F4#020000FFFFFFFFFF
(1703560145.513943) can0 1CECF456#13090002FF001100
(1703560145.533094) can0 181056F4#A510D80E02
(1703560145.551160) can0 1812F456#240BA00F0000FD
(1703560145.581512) can0 181056F4#A510D80E02
(1703560145.621858) can0 1812F456#240BA00F0000FD
(1703560145.632671) can0 181056F4#A510D80E02
(1703560145.682757) can0 181056F4#A510D80E02
(1703560145.688873) can0 1812F456#240BA00F0000FD
(1703560145.731563) can0 181056F4#A510D80E02
(1703560145.741487) can0 1CEC56F4#10090002FF001100
(1703560145.742849) can0 1CECF456#110201FFFF001100
(1703560145.751823) can0 1CEB56F4#01C50EA00F4C114D
(1703560145.766316) can0 1812F456#240BA00F0000FD
(1703560145.766800) can0 1CEB56F4#020000FFFFFFFFFF
(1703560145.767185) can0 1CECF456#13090002FF001100
(1703560145.781789) can0 181056F4#A510D80E02
(1703560145.812828) can0 181356F4#1E3606350F0010
(1703560145.831641) can0 1812F456#240BA00F0000FD
(1703560145.831770) can0 181056F4#A510D80E02
(1703560145.881318) can0 181056F4#A510D80E02
(1703560145.897044) can0 1812F456#240BA00F0000FD
(1703560145.931853) can0 181056F4#A510D80E02
(1703560145.967136) can0 1812F456#240BA00F0000FD
(1703560145.983420) can0 181056F4#A510D80E02
(1703560145.991836) can0 1CEC56F4#10090002FF001100
(1703560145.992238) can0 1CECF456#110201FFFF001100
(1703560146.000973) can0 1CEB56F4#01C50EA00F4C314D
(1703560146.011102) can0 1CEB56F4#020000FFFFFFFFFF
(1703560146.012898) can0 1CECF456#13090002FF001100
(1703560146.032874) can0 181056F4#A510D80E02
(1703560146.035804) can0 1812F456#240BA00F0000FD
(1703560146.063353) can0 181356F4#1E3606350F0010
(1703560146.082436) can0 181056F4#A510D80E02
(1703560146.104510) can0 1812F456#240BA00F0000FD
(1703560146.131547) can0 181056F4#A510D80E02
(1703560146.173411) can0 1812F456#240BA00F0000FD
(1703560146.181720) can0 181056F4#A510D80E02
(1703560146.234113) can0 181056F4#A510D80E02
(1703560146.241804) can0 1CEC56F4#10090002FF001100
(1703560146.242120) can0 1812F456#240BA00F0000FD
(1703560146.243016) can0 1CECF456#110201FFFF001100
(1703560146.251275) can0 1CEB56F4#01C40EA00F4C614D
(1703560146.260930) can0 1CEB56F4#020000FFFFFFFFFF
(1703560146.262175) can0 1CECF456#13090002FF001100
(1703560146.281826) can0 181056F4#A510D80E02
(1703560146.310893) can0 1812F456#240BA00F0000FD
(1703560146.311665) can0 181356F4#1E3606350F0010
(1703560146.332073) can0 181056F4#A510D80E02
(1703560146.379522) can0 1812F456#240BA00F0000FD
(1703560146.382274) can0 181056F4#A510D80E02
(1703560146.433884) can0 181056F4#A510D80E02
(1703560146.449614) can0 1812F456#C50EA00F0000FD
(1703560146.485491) can0 181056F4#A510D80E02
(1703560146.492422) can0 1CEC56F4#10090002FF001100
(1703560146.494173) can0 1CECF456#110201FFFF001100
(1703560146.501743) can0 1CEB56F4#01C50EA00F4CE14D
(1703560146.511066) can0 1CEB56F4#020000FFFFFFFFFF
(1703560146.511927) can0 1CECF456#13090002FF001100
(1703560146.517561) can0 1812F456#C50EA00F0000FD
(1703560146.531631) can0 181056F4#A510D80E02
(1703560146.561612) can0 181356F4#213606350F0010
(1703560146.581730) can0 181056F4#A510D80E02
(1703560146.586214) can0 1812F456#C50EA00F0000FD
(1703560146.631624) can0 181056F4#A510D80E02
(1703560146.655543) can0 1812F456#C50EA00F0000FD
(1703560146.686003) can0 181056F4#A510D80E02
(1703560146.724445) can0 1812F456#C50EA00F0000FD
(1703560146.738605) can0 181056F4#A510D80E02
(1703560146.741788) can0 1CEC56F4#10090002FF001100
(1703560146.742895) can0 1CECF456#110201FFFF001100
(1703560146.751258) can0 1CEB56F4#01C50E9F0F4CE14D
(1703560146.761395) can0 1CEB56F4#020000FFFFFFFFFF
(1703560146.762765) can0 1CECF456#13090002FF001100
(1703560146.782019) can0 181056F4#A510D80E02
(1703560146.793908) can0 1812F456#C50EA00F0000FD
(1703560146.811669) can0 181356F4#213606350F0010
(1703560146.831802) can0 181056F4#A510D80E02
(1703560146.862146) can0 1812F456#C50EA00F0000FD
(1703560146.881854) can0 181056F4#A510D80E02
(1703560146.930945) can0 1812F456#C50EA00F0000FD
(1703560146.931280) can0 181056F4#A510D80E02
(1703560146.981601) can0 181056F4#A510D80E02
(1703560146.992196) can0 1CEC56F4#10090002FF001100
(1703560146.992600) can0 1CECF456#110201FFFF001100
(1703560146.999798) can0 1812F456#C50EA00F0000FD
(1703560147.001780) can0 1CEB56F4#01C60E9D0F4C114D
(1703560147.011112) can0 1CEB56F4#020000FFFFFFFFFF
(1703560147.015853) can0 1CECF456#13090002FF001100
(1703560147.033447) can0 181056F4#A510D80E02
(1703560147.061597) can0 181356F4#1B360635110010
(1703560147.068596) can0 1812F456#C50EA00F0000FD
(1703560147.081808) can0 181056F4#A510D80E02
(1703560147.131618) can0 181056F4#A510D80E02
(1703560147.136839) can0 1812F456#C50EA00F0000FD
(1703560147.182202) can0 181056F4#A510D80E02
(1703560147.206549) can0 1812F456#C50EA00F0000FD
(1703560147.231456) can0 181056F4#A510D80E02
(1703560147.245036) can0 1CEC56F4#10090002FF001100
(1703560147.245236) can0 1CECF456#110201FFFF001100
(1703560147.251064) can0 1CEB56F4#01C70E9A0F4CE14D
(1703560147.267141) can0 1CEB56F4#020000FFFFFFFFFF
(1703560147.267502) can0 1CECF456#13090002FF001100
(1703560147.273895) can0 1812F456#C50EA00F0000FD
(1703560147.281761) can0 181056F4#A510D80E02
(1703560147.312091) can0 181356F4#263606350F0010
(1703560147.335219) can0 181056F4#A510D80E02
(1703560147.342661) can0 1812F456#C50EA00F0000FD
(1703560147.387724) can0 181056F4#A510D80E02
(1703560147.411171) can0 1812F456#C50EA00F0000FD
(1703560147.431684) can0 181056F4#A510D80E02
(1703560147.479947) can0 1812F456#C50EA00F0000FD
(1703560147.481101) can0 181056F4#A510760E02
(1703560147.492258) can0 1CEC56F4#10090002FF001100
(1703560147.493021) can0 1CECF456#110201FFFF001100
(1703560147.502373) can0 1CEB56F4#01C70E990F4C614D
(1703560147.510899) can0 1CEB56F4#020000FFFFFFFFFF
(1703560147.512187) can0 1CECF456#13090002FF001100
(1703560147.531578) can0 181056F4#A510760E02
(1703560147.549034) can0 1812F456#C50EA00F0000FD
(1703560147.562676) can0 181356F4#21360635180010
(1703560147.581574) can0 181056F4#A510760E02
(1703560147.617682) can0 1812F456#C50EA00F0000FD
(1703560147.631400) can0 181056F4#A510760E02
(1703560147.681658) can0 181056F4#A510760E02
(1703560147.686996) can0 1812F456#C50EA00F0000FD
(1703560147.731605) can0 181056F4#A510760E02
(1703560147.741644) can0 1CEC56F4#10090002FF001100
(1703560147.742910) can0 1CECF456#110201FFFF001100
(1703560147.755007) can0 1CEB56F4#01C60E980F4C114D
(1703560147.755784) can0 1812F456#C50EA00F0000FD
(1703560147.761075) can0 1CEB56F4#020000FFFFFFFFFF
(1703560147.762810) can0 1CECF456#13090002FF001100
(1703560147.782595) can0 181056F4#A510760E02
(1703560147.811473) can0 181356F4#213606350F0010
(1703560147.824538) can0 1812F456#C50EA00F0000FD
(1703560147.835415) can0 181056F4#A510760E02
(1703560147.881449) can0 181056F4#A510760E02
(1703560147.893361) can0 1812F456#C50EA00F0000FD
(1703560147.938316) can0 181056F4#A510760E02
(1703560147.962610) can0 1812F456#C50EA00F0000FD
(1703560147.982325) can0 181056F4#A510760E02
(1703560147.991974) can0 1CEC56F4#10090002FF001100
(1703560147.993161) can0 1CECF456#110201FFFF001100
(1703560148.001210) can0 1CEB56F4#01C60E970F4C614D
(1703560148.012844) can0 1CEB56F4#020000FFFFFFFFFF
(1703560148.013207) can0 1CECF456#13090002FF001100
(1703560148.032263) can0 1812F456#C50EA00F0000FD
(1703560148.032482) can0 181056F4#A510760E02
(1703560148.062194) can0 181356F4#1E3606350F0010
(1703560148.081638) can0 181056F4#A510760E02
(1703560148.102318) can0 1812F456#C50EA00F0000FD
(1703560148.131400) can0 181056F4#A510760E02
(1703560148.173801) can0 1812F456#C50EA00F0000FD
(1703560148.181914) can0 181056F4#A510760E02
(1703560148.231404) can0 181056F4#A510760E02
(1703560148.250641) can0 1812F456#C50EA00F0000FD
(1703560148.251210) can0 1CEC56F4#10090002FF001100
(1703560148.251458) can0 1CECF456#110201FFFF001100
(1703560148.252278) can0 1CEB56F4#01C60E940F4C614D
(1703560148.261159) can0 1CEB56F4#020000FFFFFFFFFF
(1703560148.265067) can0 1CECF456#13090002FF001100
(1703560148.281367) can0 181056F4#A510760E02
(1703560148.305746) can0 1812F456#C50EA00F0000FD
(1703560148.311585) can0 181356F4#26360635110010
(1703560148.342573) can0 181056F4#A510760E02
(1703560148.375333) can0 1812F456#C50EA00F0000FD
(1703560148.381224) can0 181056F4#A510760E02
(1703560148.432631) can0 181056F4#A510760E02
(1703560148.442660) can0 1812F456#C50EA00F0000FD
(1703560148.488634) can0 181056F4#A510760E02
(1703560148.496043) can0 1CEC56F4#10090002FF001100
(1703560148.496203) can0 1CECF456#110201FFFF001100
(1703560148.508889) can0 1CEB56F4#01C60E950F4CE14D
(1703560148.512966) can0 1CEB56F4#020000FFFFFFFFFF
(1703560148.513041) can0 1CECF456#13090002FF001100
(1703560148.513143) can0 1812F456#C50EA00F0000FD
(1703560148.531318) can0 181056F4#A510760E02
(1703560148.561803) can0 181356F4#1E3606350F0010
(1703560148.581159) can0 1812F456#C50EA00F0000FD
(1703560148.581460) can0 181056F4#A510760E02
(1703560148.631544) can0 181056F4#A510760E02
(1703560148.650120) can0 1812F456#C50EA00F0000FD
(1703560148.682435) can0 181056F4#A510760E02
(1703560148.718714) can0 1812F456#C50EA00F0000FD
(1703560148.731682) can0 181056F4#A510760E02
(1703560148.741478) can0 1CEC56F4#10090002FF001100
(1703560148.742673) can0 1CECF456#110201FFFF001100
(1703560148.751200) can0 1CEB56F4#01C80E9A0F4C614D
(1703560148.762055) can0 1CEB56F4#020000FFFFFFFFFF
(1703560148.762510) can0 1CECF456#13090002FF001100
(1703560148.781192) can0 181056F4#A510760E02
(1703560148.787765) can0 1812F456#C60EA00F0000FD
(1703560148.816088) can0 181356F4#21360635110010
(1703560148.831199) can0 181056F4#A510760E02
(1703560148.862811) can0 1812F456#C60EA00F0000FD
(1703560148.895932) can0 181056F4#A510760E02
(1703560148.924858) can0 1812F456#C60EA00F0000FD
(1703560148.931180) can0 181056F4#A510760E02
(1703560148.981229) can0 181056F4#A510760E02
(1703560148.996958) can0 1CEC56F4#10090002FF001100
(1703560148.997958) can0 1CECF456#110201FFFF001100
(1703560148.998909) can0 1812F456#C60EA00F0000FD
(1703560149.002355) can0 1CEB56F4#01C70EA00F4C614D
(1703560149.011927) can0 1CEB56F4#020000FFFFFFFFFF
(1703560149.012529) can0 1CECF456#13090002FF001100
(1703560149.031724) can0 181056F4#A510760E02
(1703560149.061311) can0 181356F4#1B3606350F0010
(1703560149.062752) can0 1812F456#C60EA00F0000FD
(1703560149.081220) can0 181056F4#A510760E02
(1703560149.131160) can0 1812F456#C60EA00F0000FD
(1703560149.131360) can0 181056F4#A510760E02
(1703560149.187341) can0 181056F4#A510760E02
(1703560149.202606) can0 1812F456#C60EA00F0000FD
(1703560149.232117) can0 181056F4#A510760E02
(1703560149.241554) can0 1CEC56F4#10090002FF001100
(1703560149.242720) can0 1CECF456#110201FFFF001100
(1703560149.251251) can0 1CEB56F4#01C80EA00F4C014D
(1703560149.260990) can0 1CEB56F4#020000FFFFFFFFFF
(1703560149.262409) can0 1CECF456#13090002FF001100
(1703560149.268803) can0 1812F456#C60EA00F0000FD
(1703560149.281119) can0 181056F4#A510760E02
(1703560149.311297) can0 181356F4#263606350F0010
(1703560149.331165) can0 181056F4#A510760E02
(1703560149.337476) can0 1812F456#C60EA00F0000FD
(1703560149.385008) can0 181056F4#A510760E02
(1703560149.406337) can0 1812F456#C60EA00F0000FD
(1703560149.431385) can0 181056F4#A510760E02
(1703560149.475143) can0 1812F456#C60EA00F0000FD
(1703560149.481642) can0 181056F4#A510760E02
(1703560149.493348) can0 1CEC56F4#10090002FF001100
(1703560149.493582) can0 1CECF456#110201FFFF001100
(1703560149.500901) can0 1CEB56F4#01C80EA00F4CE14D
(1703560149.511217) can0 1CEB56F4#020000FFFFFFFFFF
(1703560149.511591) can0 1CECF456#13090002FF001100
(1703560149.531209) can0 181056F4#A510760E02
(1703560149.543865) can0 1812F456#C60EA00F0000FD
(1703560149.561224) can0 181356F4#213606350F0010
(1703560149.581161) can0 181056F4#A510760E02
(1703560149.615329) can0 1812F456#C60EA00F0000FD
(1703560149.632130) can0 181056F4#A510760E02
(1703560149.681341) can0 181056F4#A510760E02
(1703560149.681890) can0 1812F456#C60EA00F0000FD
(1703560149.731344) can0 181056F4#A510760E02
(1703560149.741480) can0 1CEC56F4#10090002FF001100
(1703560149.742125) can0 1CECF456#110201FFFF001100
(1703560149.751603) can0 1CEB56F4#01C70EA00F4C614D
(1703560149.751944) can0 1812F456#C60EA00F0000FD
(1703560149.760855) can0 1CEB56F4#020000FFFFFFFFFF
(1703560149.762478) can0 1CECF456#13090002FF001100
(1703560149.782341) can0 181056F4#A510760E02
(1703560149.813071) can0 181356F4#213606350F0010
(1703560149.820664) can0 1812F456#C60EA00F0000FD
(1703560149.831302) can0 181056F4#A510760E02
(1703560149.881912) can0 181056F4#A510760E02
(1703560149.889069) can0 1812F456#C60EA00F0000FD
(1703560149.931265) can0 181056F4#A510760E02
(1703560149.959040) can0 1812F456#C60EA00F0000FD
(1703560149.981299) can0 181056F4#A510760E02
(1703560149.991432) can0 1CEC56F4#10090002FF001100
(1703560149.992172) can0 1CECF456#110201FFFF001100
(1703560150.000999) can0 1CEB56F4#01C80EA00F4C514D
(1703560150.012745) can0 1CEB56F4#020000FFFFFFFFFF
(1703560150.012983) can0 1CECF456#13090002FF001100
(1703560150.026884) can0 1812F456#C80EA00F0000FD
(1703560150.037211) can0 181056F4#A510760E02
(1703560150.061263) can0 181356F4#1E360635110010
(1703560150.081375) can0 181056F4#A510760E02
(1703560150.095458) can0 1812F456#C80EA00F0000FD
(1703560150.137507) can0 181056F4#A510760E02
(1703560150.165008) can0 1812F456#C80EA00F0000FD
(1703560150.182136) can0 181056F4#A510760E02
(1703560150.231106) can0 181056F4#A510760E02
(1703560150.232887) can0 1812F456#C80EA00F0000FD
(1703560150.242471) can0 1CEC56F4#10090002FF001100
(1703560150.242781) can0 1CECF456#110201FFFF001100
(1703560150.251046) can0 1CEB56F4#01C90EA00F4C314D
(1703560150.261889) can0 1CEB56F4#020000FFFFFFFFFF
(1703560150.262183) can0 1CECF456#13090002FF001100
(1703560150.281323) can0 181056F4#A510760E02
(1703560150.304815) can0 1812F456#C80EA00F0000FD
(1703560150.311132) can0 181356F4#21360635180010
(1703560150.331166) can0 181056F4#A510760E02
(1703560150.371055) can0 1812F456#C80EA00F0000FD
(1703560150.380984) can0 181056F4#A510760E02
(1703560150.431302) can0 181056F4#A510760E02
(1703560150.439561) can0 1812F456#C80EA00F0000FD
(1703560150.481331) can0 181056F4#A510760E02
(1703560150.491443) can0 1CEC56F4#10090002FF001100
(1703560150.491880) can0 1CECF456#110201FFFF001100
(1703560150.507959) can0 1CEB56F4#01CB0EA00F4C614D
(1703560150.508699) can0 1812F456#C80EA00F0000FD
(1703560150.511235) can0 1CEB56F4#020000FFFFFFFFFF
(1703560150.512626) can0 1CECF456#13090002FF001100
(1703560150.532395) can0 181056F4#A510760E02
(1703560150.565506) can0 181356F4#26360635180010
(1703560150.580169) can0 1812F456#C80EA00F0000FD
(1703560150.587005) can0 181056F4#A510760E02
(1703560150.631159) can0 181056F4#A510760E02
(1703560150.645874) can0 1812F456#C80EA00F0000FD
(1703560150.681545) can0 181056F4#A510760E02
(1703560150.716203) can0 1812F456#C80EA00F0000FD
(1703560150.731250) can0 181056F4#A510760E02
(1703560150.741425) can0 1CEC56F4#10090002FF001100
(1703560150.742231) can0 1CECF456#110201FFFF001100
(1703560150.751110) can0 1CEB56F4#01C80EA00F4C514D
(1703560150.760986) can0 1CEB56F4#020000FFFFFFFFFF
(1703560150.762267) can0 1CECF456#13090002FF001100
(1703560150.781152) can0 181056F4#A510760E02
(1703560150.784689) can0 1812F456#C80EA00F0000FD
(1703560150.811244) can0 181356F4#23360635180010
(1703560150.837215) can0 181056F4#A510760E02
(1703560150.854101) can0 1812F456#C80EA00F0000FD
(1703560150.881010) can0 181056F4#A510760E02
(1703560150.922267) can0 1812F456#C80EA00F0000FD
(1703560150.942296) can0 181056F4#A510760E02
(1703560150.981201) can0 181056F4#A510760E02
(1703560150.991002) can0 1812F456#C80EA00F0000FD
(1703560150.991469) can0 1CEC56F4#10090002FF001100
(1703560150.992531) can0 1CECF456#110201FFFF001100
(1703560151.001988) can0 1CEB56F4#01C90EA00F4C614D
(1703560151.019577) can0 1CEB56F4#020000FFFFFFFFFF
(1703560151.019767) can0 1CECF456#13090002FF001100
(1703560151.032072) can0 181056F4#A510760E02
(1703560151.062632) can0 1812F456#C80EA00F0000FD
(1703560151.063072) can0 181356F4#263606350F0010
(1703560151.081236) can0 181056F4#A510760E02
(1703560151.128567) can0 1812F456#C80EA00F0000FD
(1703560151.133573) can0 181056F4#A510760E02
(1703560151.181358) can0 181056F4#A510760E02
(1703560151.197264) can0 1812F456#C90EA00F0000FD
(1703560151.232946) can0 181056F4#A510760E02
(1703560151.241927) can0 1CEC56F4#10090002FF001100
(1703560151.242941) can0 1CECF456#110201FFFF001100
(1703560151.251156) can0 1CEB56F4#01C90EA00F4C114D
(1703560151.260928) can0 1CEB56F4#020000FFFFFFFFFF
(1703560151.262145) can0 1CECF456#13090002FF001100
(1703560151.266331) can0 1812F456#C90EA00F0000FD
(1703560151.283764) can0 181056F4#A510760E02
(1703560151.312158) can0 181356F4#1E360635110010
(1703560151.337683) can0 181056F4#A510760E02
(1703560151.337949) can0 1812F456#C90EA00F0000FD
(1703560151.381208) can0 181056F4#A510760E02
(1703560151.405043) can0 1812F456#C90EA00F0000FD
(1703560151.431947) can0 181056F4#A510760E02
(1703560151.476116) can0 1812F456#C90EA00F0000FD
(1703560151.483578) can0 181056F4#A510760E02
(1703560151.492699) can0 1CEC56F4#10090002FF001100
(1703560151.492927) can0 1CECF456#110201FFFF001100
(1703560151.500938) can0 1CEB56F4#01CA0EA00F4C514D
(1703560151.510912) can0 1CEB56F4#020000FFFFFFFFFF
(1703560151.512468) can0 1CECF456#13090002FF001100
(1703560151.532258) can0 181056F4#A510760E02
(1703560151.540612) can0 1812F456#C90EA00F0000FD
(1703560151.561102) can0 181356F4#343606350F0010
(1703560151.581130) can0 181056F4#A510760E02
(1703560151.610204) can0 1812F456#C90EA00F0000FD
(1703560151.630978) can0 181056F4#A510760E02
(1703560151.679044) can0 1812F456#C90EA00F0000FD
(1703560151.681506) can0 181056F4#A510760E02
(1703560151.731466) can0 181056F4#A510760E02
(1703560151.741575) can0 1CEC56F4#10090002FF001100
(1703560151.741961) can0 1CECF456#110201FFFF001100
(1703560151.748398) can0 1812F456#C90EA00F0000FD
(1703560151.751068) can0 1CEB56F4#01C80EA00F4C814D
(1703560151.760608) can0 1CEB56F4#020000FFFFFFFFFF
(1703560151.762155) can0 1CECF456#13090002FF001100
(1703560151.781198) can0 181056F4#A510760E02
(1703560151.816032) can0 181356F4#1B360635110010
(1703560151.817711) can0 1812F456#C90EA00F0000FD
(1703560151.831450) can0 181056F4#A510760E02
(1703560151.881315) can0 181056F4#A510760E02
(1703560151.886477) can0 1812F456#C90EA00F0000FD
(1703560151.931267) can0 181056F4#A510760E02
(1703560151.955330) can0 1812F456#C90EA00F0000FD
(1703560151.981866) can0 181056F4#A510760E02
(1703560151.991371) can0 1CEC56F4#10090002FF001100
(1703560151.992865) can0 1CECF456#110201FFFF001100
(1703560152.000842) can0 1CEB56F4#01C90EA00F4C414D
(1703560152.010804) can0 1CEB56F4#020000FFFFFFFFFF
(1703560152.011571) can0 1CECF456#13090002FF001100
(1703560152.023876) can0 1812F456#C90EA00F0000FD
(1703560152.031475) can0 181056F4#A510760E02
(1703560152.064065) can0 181356F4#26360635180010
(1703560152.085105) can0 181056F4#A510760E02
(1703560152.112970) can0 1812F456#C90EA00F0000FD
(1703560152.131697) can0 181056F4#A510760E02
(1703560152.163731) can0 1812F456#C90EA00F0000FD
(1703560152.181398) can0 181056F4#A510760E02
(1703560152.231199) can0 1812F456#C90EA00F0000FD
(1703560152.231490) can0 181056F4#A510760E02
(1703560152.241948) can0 1CEC56F4#10090002FF001100
(1703560152.242472) can0 1CECF456#110201FFFF001100
(1703560152.253272) can0 1CEB56F4#01C90EA00F4C614D
(1703560152.260671) can0 1CEB56F4#020000FFFFFFFFFF
(1703560152.261948) can0 1CECF456#13090002FF001100
(1703560152.281135) can0 181056F4#A510760E02
(1703560152.299440) can0 1812F456#C90EA00F0000FD
(1703560152.311324) can0 181356F4#1E3606350F0010
(1703560152.331134) can0 181056F4#A510760E02
(1703560152.370352) can0 1812F456#C90EA00F0000FD
(1703560152.381499) can0 181056F4#A510760E02
(1703560152.431133) can0 181056F4#A510760E02
(1703560152.437077) can0 1812F456#C90EA00F0000FD
(1703560152.481244) can0 181056F4#A510760E02
(1703560152.491439) can0 1CEC56F4#10090002FF001100
(1703560152.492210) can0 1CECF456#110201FFFF001100
(1703560152.500905) can0 1CEB56F4#01C80EA00F4C614D
(1703560152.506054) can0 1812F456#C90EA00F0000FD
(1703560152.510808) can0 1CEB56F4#020000FFFFFFFFFF
(1703560152.512696) can0 1CECF456#13090002FF001100
(1703560152.533117) can0 181056F4#A510760E02
(1703560152.561480) can0 181356F4#233606350F0010
(1703560152.577089) can0 1812F456#C90EA00F0000FD
(1703560152.582040) can0 181056F4#A510760E02
(1703560152.639012) can0 181056F4#A510760E02
(1703560152.650765) can0 1812F456#C90EA00F0000FD
(1703560152.681207) can0 181056F4#A510760E02
(1703560152.723130) can0 1812F456#C90EA00F0000FD
(1703560152.731277) can0 181056F4#A510760E02
(1703560152.741402) can0 1CEC56F4#10090002FF001100
(1703560152.741918) can0 1CECF456#110201FFFF001100
(1703560152.750955) can0 1CEB56F4#01C60EA00F4CE14D
(1703560152.760687) can0 1CEB56F4#020000FFFFFFFFFF
(1703560152.762239) can0 1CECF456#13090002FF001100
(1703560152.781973) can0 181056F4#A510760E02
(1703560152.785263) can0 1812F456#C90EA00F0000FD
(1703560152.813001) can0 181356F4#263606350F0010
(1703560152.834819) can0 181056F4#A510760E02
(1703560152.852052) can0 1812F456#C90EA00F0000FD
(1703560152.881238) can0 181056F4#A510760E02
(1703560152.920627) can0 1812F456#C90EA00F0000FD
(1703560152.931223) can0 181056F4#A510760E02
(1703560152.981150) can0 181056F4#A510760E02
(1703560153.004398) can0 1812F456#C90EA00F0000FD
(1703560153.007791) can0 1CEC56F4#10090002FF001100
(1703560153.008854) can0 1CECF456#110201FFFF001100
(1703560153.009089) can0 1CEB56F4#01D60E160F4D114D
(1703560153.011049) can0 1CEB56F4#020000FFFFFFFFFF
(1703560153.012596) can0 1CECF456#13090002FF001100
(1703560153.032593) can0 181056F4#A510760E02
(1703560153.058196) can0 1812F456#C90EA00F0000FD
(1703560153.062045) can0 181356F4#1E360635110010
(1703560153.081128) can0 181056F4#A510760E02
(1703560153.127029) can0 1812F456#C90EA00F0000FD
(1703560153.131008) can0 181056F4#A510760E02
(1703560153.181729) can0 181056F4#A510760E02
(1703560153.232514) can0 1812F456#C90EA00F0000FD
(1703560153.232740) can0 181056F4#A510760E02
(1703560153.254509) can0 1CEC56F4#10090002FF001100
(1703560153.254734) can0 1CECF456#110201FFFF001100
(1703560153.255114) can0 1CEB56F4#01E30E9B0E4E614D
(1703560153.264953) can0 1CEB56F4#020000FFFFFFFFFF
(1703560153.265148) can0 1CECF456#13090002FF001100
(1703560153.265491) can0 1812F456#C90EA00F0000FD
(1703560153.280936) can0 181056F4#A510760E02
(1703560153.314097) can0 181356F4#26360635180010
(1703560153.332010) can0 181056F4#A510760E02
(1703560153.336247) can0 1812F456#C90EA00F0000FD
(1703560153.381082) can0 181056F4#A510760E02
(1703560153.402661) can0 1812F456#C90EA00F0000FD
(1703560153.432873) can0 181056F4#A510760E02
(1703560153.471364) can0 1812F456#C90EA00F0000FD
(1703560153.481250) can0 181056F4#A510760E02
(1703560153.492788) can0 1CEC56F4#10090002FF001100
(1703560153.492982) can0 1CECF456#110201FFFF001100
(1703560153.500874) can0 1CEB56F4#01E70E7F0E4F614D
(1703560153.510908) can0 1CEB56F4#020000FFFFFFFFFF
(1703560153.511571) can0 1CECF456#13090002FF001100
(1703560153.531413) can0 181056F4#A510760E02
(1703560153.539964) can0 1812F456#C90EA00F0000FD
(1703560153.561441) can0 181356F4#2E3606350F0010
(1703560153.595118) can0 181056F4#A510760E02
(1703560153.609402) can0 1812F456#C90EFD0E0000FD
(1703560153.635414) can0 181056F4#A510760E02
(1703560153.678624) can0 1812F456#C90EFD0E0000FD
(1703560153.681405) can0 181056F4#A510760E02
(1703560153.731809) can0 181056F4#A510760E02
(1703560153.742182) can0 1CEC56F4#10090002FF001100
(1703560153.743736) can0 1CECF456#110201FFFF001100
(1703560153.747931) can0 1812F456#C90EFD0E0000FD
(1703560153.750923) can0 1CEB56F4#01E70E7F0E4F514D
(1703560153.760819) can0 1CEB56F4#020000FFFFFFFFFF
(1703560153.761718) can0 1CECF456#13090002FF001100
(1703560153.781213) can0 181056F4#A510760E02
(1703560153.811600) can0 181356F4#2E360635180010
(1703560153.817163) can0 1812F456#C90EFD0E0000FD
(1703560153.831989) can0 181056F4#A510760E02
(1703560153.881169) can0 181056F4#A510760E02
(1703560153.886504) can0 1812F456#C90EFD0E0000FD
(1703560153.932295) can0 181056F4#A510760E02
(1703560153.956717) can0 1812F456#C90EFD0E0000FD
(1703560154.013713) can0 181056F4#A510760E02
(1703560154.014271) can0 1CEC56F4#10090002FF001100
(1703560154.014851) can0 1CECF456#110201FFFF001100
(1703560154.015144) can0 1CEB56F4#01E90E810E4FE14D
(1703560154.015147) can0 1CEB56F4#020000FFFFFFFFFF
(1703560154.015149) can0 1CECF456#13090002FF001100
(1703560154.026704) can0 1812F456#C90EFD0E0000FD
(1703560154.036398) can0 181056F4#A510760E02
(1703560154.061315) can0 181356F4#2E3606350F0010
(1703560154.081343) can0 181056F4#A510760E02
(1703560154.092510) can0 1812F456#C90EFD0E0000FD
(1703560154.131747) can0 181056F4#A510760E02
(1703560154.162340) can0 1812F456#C90EFD0E0000FD
(1703560154.181369) can0 181056F4#A510760E02
(1703560154.230357) can0 1812F456#C90EFD0E0000FD
(1703560154.231799) can0 181056F4#A510760E02
(1703560154.242892) can0 1CEC56F4#10090002FF001100
(1703560154.243083) can0 1CECF456#110201FFFF001100
(1703560154.261529) can0 1CEB56F4#01EA0E7C0E4FA14D
(1703560154.261675) can0 1CEB56F4#020000FFFFFFFFFF
(1703560154.261998) can0 1CECF456#13090002FF001100
(1703560154.281338) can0 181056F4#A510760E02
(1703560154.299536) can0 1812F456#C90EFD0E0000FD
(1703560154.319908) can0 181356F4#253606350F0010
(1703560154.331190) can0 181056F4#A510760E02
(1703560154.368332) can0 1812F456#C90EFD0E0000FD
(1703560154.381209) can0 181056F4#A510760E02
(1703560154.435276) can0 181056F4#A510760E02
(1703560154.436974) can0 1812F456#C90EFD0E0000FD
(1703560154.481343) can0 181056F4#A510760E02
(1703560154.496637) can0 1CEC56F4#10090002FF001100
(1703560154.498235) can0 1CECF456#110201FFFF001100
(1703560154.501486) can0 1CEB56F4#01EA0E7B0E4F614D
(1703560154.506158) can0 1812F456#C90EFD0E0000FD
(1703560154.510572) can0 1CEB56F4#020000FFFFFFFFFF
(1703560154.512115) can0 1CECF456#13090002FF001100
(1703560154.531066) can0 181056F4#A510760E02
(1703560154.562250) can0 181356F4#2A3606350F0010
(1703560154.574803) can0 1812F456#C90EFD0E0000FD
(1703560154.586197) can0 181056F4#A510760E02
(1703560154.631075) can0 181056F4#A510760E02
(1703560154.644498) can0 1812F456#C90EFD0E0000FD
(1703560154.681338) can0 181056F4#A510760E02
(1703560154.718897) can0 1812F456#C90EFD0E0000FD
(1703560154.736042) can0 181056F4#A510760E02
(1703560154.747098) can0 1CEC56F4#10090002FF001100
(1703560154.747175) can0 1CECF456#110201FFFF001100
(1703560154.753276) can0 1CEB56F4#01EA0E830E4F614D
(1703560154.760675) can0 1CEB56F4#020000FFFFFFFFFF
(1703560154.761713) can0 1CECF456#13090002FF001100
(1703560154.781133) can0 181056F4#A510760E02
(1703560154.782839) can0 1812F456#C90EFD0E0000FD
(1703560154.812176) can0 181356F4#3D360635110010
(1703560154.831326) can0 181056F4#A510760E02
(1703560154.856176) can0 1812F456#F00E760E0000FD
(1703560154.899045) can0 181056F4#A510760E02
(1703560154.920765) can0 1812F456#F00E760E0000FD
(1703560154.931628) can0 181056F4#A510760E02
(1703560154.981243) can0 181056F4#A510760E02
(1703560154.990379) can0 1812F456#F00E760E0000FD
(1703560154.991203) can0 1CEC56F4#10090002FF001100
(1703560154.992118) can0 1CECF456#110201FFFF001100
(1703560155.000789) can0 1CEB56F4#01EB0E810E4FD14D
(1703560155.011075) can0 1CEB56F4#020000FFFFFFFFFF
(1703560155.012449) can0 1CECF456#13090002FF001100
(1703560155.031220) can0 181056F4#A510760E02
(1703560155.062223) can0 1812F456#F00E760E0000FD
(1703560155.062501) can0 181356F4#2A3606350F0010
(1703560155.082402) can0 181056F4#A510760E02
(1703560155.127113) can0 1812F456#F00E760E0000FD
(1703560155.131296) can0 181056F4#A510760E02
(1703560155.181968) can0 181056F4#A510760E02
(1703560155.196208) can0 1812F456#F00E760E0000FD
(1703560155.231312) can0 181056F4#A510760E02
(1703560155.242095) can0 1CEC56F4#10090002FF001100
(1703560155.242258) can0 1CECF456#110201FFFF001100
(1703560155.252042) can0 1CEB56F4#01EA0E800E4FC14D
(1703560155.260497) can0 1CEB56F4#020000FFFFFFFFFF
(1703560155.263506) can0 1CECF456#13090002FF001100
(1703560155.265708) can0 1812F456#F00E760E0000FD
(1703560155.281116) can0 181056F4#A510760E02
(1703560155.311841) can0 181356F4#263606350F0010
(1703560155.332905) can0 181056F4#A510760E02
(1703560155.334036) can0 1812F456#F00E760E0000FD
(1703560155.388109) can0 181056F4#A510760E02
(1703560155.404719) can0 1812F456#F00E760E0000FD
(1703560155.433000) can0 181056F4#A510760E02
(1703560155.471631) can0 1812F456#F00E760E0000FD
(1703560155.481185) can0 181056F4#A510760E02
(1703560155.491154) can0 1CEC56F4#10090002FF001100
(1703560155.491649) can0 1CECF456#110201FFFF001100
(1703560155.500470) can0 1CEB56F4#01EB0E830E4FA14D
(1703560155.510521) can0 1CEB56F4#020000FFFFFFFFFF
(1703560155.512123) can0 1CECF456#13090002FF001100
(1703560155.531007) can0 181056F4#A510760E02
(1703560155.540193) can0 1812F456#F00E760E0000FD
(1703560155.561306) can0 181356F4#3C360635180010
(1703560155.583523) can0 181056F4#A510760E02
(1703560155.614200) can0 1812F456#F00E760E0000FD
(1703560155.631152) can0 181056F4#A510760E02
(1703560155.679148) can0 1812F456#F00E760E0000FD
(1703560155.681101) can0 181056F4#A510760E02
(1703560155.731287) can0 181056F4#A510760E02
(1703560155.741492) can0 1CEC56F4#10090002FF001100
(1703560155.742633) can0 1CECF456#110201FFFF001100
(1703560155.748462) can0 1812F456#F00E760E0000FD
(1703560155.751001) can0 1CEB56F4#01E90E810E4FA14D
(1703560155.760901) can0 1CEB56F4#020000FFFFFFFFFF
(1703560155.762167) can0 1CECF456#13090002FF001100
(1703560155.781086) can0 181056F4#A510760E02
(1703560155.816119) can0 181356F4#263606350F0010
(1703560155.817639) can0 1812F456#F00E760E0000FD
(1703560155.831259) can0 181056F4#A510760E02
(1703560155.881200) can0 181056F4#A510760E02
(1703560155.887245) can0 1812F456#F00E760E0000FD
(1703560155.931013) can0 181056F4#A510760E02
(1703560155.958202) can0 1812F456#F00E760E0000FD
(1703560155.981482) can0 181056F4#A510760E02
(1703560155.991167) can0 1CEC56F4#10090002FF001100
(1703560155.993182) can0 1CECF456#110201FFFF001100
(1703560156.008501) can0 1CEB56F4#01EC0E7D0E4F514D
(1703560156.010626) can0 1CEB56F4#020000FFFFFFFFFF
(1703560156.011884) can0 1CECF456#13090002FF001100
(1703560156.024217) can0 1812F456#F20E760E0000FD
(1703560156.031607) can0 181056F4#A510760E02
(1703560156.061393) can0 181356F4#2E360635110010
(1703560156.081206) can0 181056F4#A510760E02
(1703560156.092791) can0 1812F456#F20E760E0000FD
(1703560156.130959) can0 181056F4#A510760E02
(1703560156.162347) can0 1812F456#F20E760E0000FD
(1703560156.181053) can0 181056F4#A510760E02
(1703560156.230753) can0 1812F456#F20E760E0000FD
(1703560156.231051) can0 181056F4#A510760E02
(1703560156.241165) can0 1CEC56F4#10090002FF001100
(1703560156.242494) can0 1CECF456#110201FFFF001100
(1703560156.253180) can0 1CEB56F4#01EA0E7C0E4FE14D
(1703560156.261764) can0 1CEB56F4#020000FFFFFFFFFF
(1703560156.262279) can0 1CECF456#13090002FF001100
(1703560156.290613) can0 181056F4#A510760E02
(1703560156.300222) can0 1812F456#F20E760E0000FD
(1703560156.311014) can0 181356F4#2E3606350F0010
(1703560156.331027) can0 181056F4#A510760E02
(1703560156.368363) can0 1812F456#F20E760E0000FD
(1703560156.380996) can0 181056F4#A510760E02
(1703560156.430985) can0 181056F4#A510760E02
(1703560156.437040) can0 1812F456#F20E760E0000FD
(1703560156.480916) can0 181056F4#A510760E02
(1703560156.491067) can0 1CEC56F4#10090002FF001100
(1703560156.494547) can0 1CECF456#110201FFFF001100
(1703560156.500583) can0 1CEB56F4#01EB0E800E4F414D
(1703560156.506020) can0 1812F456#F20E760E0000FD
(1703560156.510759) can0 1CEB56F4#020000FFFFFFFFFF
(1703560156.511654) can0 1CECF456#13090002FF001100
(1703560156.539943) can0 181056F4#A510760E02
(1703560156.561129) can0 181356F4#2E3606350F0010
(1703560156.575095) can0 1812F456#F20E760E0000FD
(1703560156.580805) can0 181056F4#A510760E02
(1703560156.631057) can0 181056F4#A510760E02
(1703560156.645884) can0 1812F456#F20E760E0000FD
(1703560156.680822) can0 181056F4#A510760E02
(1703560156.712432) can0 1812F456#F20E760E0000FD
(1703560156.734578) can0 181056F4#A510760E02
(1703560156.743294) can0 1CEC56F4#10090002FF001100
(1703560156.743541) can0 1CECF456#110201FFFF001100
(1703560156.753381) can0 1CEB56F4#01EE0E770E4F514D
(1703560156.769176) can0 1CEB56F4#020000FFFFFFFFFF
(1703560156.769379) can0 1CECF456#13090002FF001100
(1703560156.800250) can0 181056F4#A510760E02
(1703560156.800582) can0 1812F456#F20E760E0000FD
(1703560156.815246) can0 181356F4#2A360635180010
(1703560156.839979) can0 181056F4#A510760E02
(1703560156.851972) can0 1812F456#F20E760E0000FD
(1703560156.896144) can0 181056F4#A510760E02
(1703560156.922989) can0 1812F456#F20E760E0000FD
(1703560156.931086) can0 181056F4#A510760E02
(1703560156.980990) can0 181056F4#A510760E02
(1703560156.989958) can0 1812F456#F20E760E0000FD
(1703560156.991001) can0 1CEC56F4#10090002FF001100
(1703560156.992554) can0 1CECF456#110201FFFF001100
(1703560157.001642) can0 1CEB56F4#01EC0E770E4F514D
(1703560157.010790) can0 1CEB56F4#020000FFFFFFFFFF
(1703560157.011386) can0 1CECF456#13090002FF001100
(1703560157.031996) can0 181056F4#A510760E02
(1703560157.059748) can0 1812F456#F20E760E0000FD
(1703560157.061808) can0 181356F4#3C3606350F0010
(1703560157.080873) can0 181056F4#A510760E02
(1703560157.134027) can0 1812F456#F20E760E0000FD
(1703560157.134694) can0 181056F4#A510760E02
(1703560157.181374) can0 181056F4#A510760E02
(1703560157.208634) can0 1812F456#F30E760E0000FD
(1703560157.230989) can0 181056F4#A510760E02
(1703560157.241529) can0 1CEC56F4#10090002FF001100
(1703560157.242577) can0 1CECF456#110201FFFF001100
(1703560157.250763) can0 1CEB56F4#01EF0E770E4FC14D
(1703560157.260592) can0 1CEB56F4#020000FFFFFFFFFF
(1703560157.268630) can0 1CECF456#13090002FF001100
(1703560157.268935) can0 1812F456#F30E760E0000FD
(1703560157.283174) can0 181056F4#A510760E02
(1703560157.312925) can0 181356F4#25360635110010
(1703560157.332014) can0 181056F4#A510760E02
(1703560157.335909) can0 1812F456#F30E760E0000FD
(1703560157.381706) can0 181056F4#A510760E02
(1703560157.403846) can0 1812F456#F30E760E0000FD
(1703560157.432477) can0 181056F4#A510760E02
(1703560157.483249) can0 1812F456#F30E760E0000FD
(1703560157.483482) can0 181056F4#A510760E02
(1703560157.493100) can0 1CEC56F4#10090002FF001100
(1703560157.493198) can0 1CECF456#110201FFFF001100
(1703560157.500482) can0 1CEB56F4#01ED0E750E4F514D
(1703560157.510521) can0 1CEB56F4#020000FFFFFFFFFF
(1703560157.511546) can0 1CECF456#13090002FF001100
(1703560157.531397) can0 181056F4#A510760E02
(1703560157.544398) can0 1812F456#F30E760E0000FD
(1703560157.561795) can0 181356F4#3C3606350F0010
(1703560157.581049) can0 181056F4#A510760E02
(1703560157.615214) can0 1812F456#F30E760E0000FD
(1703560157.633555) can0 181056F4#A510760E02
(1703560157.681157) can0 1812F456#F30E760E0000FD
(1703560157.681559) can0 181056F4#A510760E02
(1703560157.736014) can0 181056F4#A510760E02
(1703560157.741393) can0 1CEC56F4#10090002FF001100
(1703560157.742912) can0 1CECF456#110201FFFF001100
(1703560157.748782) can0 1812F456#F30E760E0000FD
(1703560157.753208) can0 1CEB56F4#01ED0E820E4FE14D
(1703560157.764865) can0 1CEB56F4#020000FFFFFFFFFF
(1703560157.765273) can0 1CECF456#13090002FF001100
(1703560157.781282) can0 181056F4#A510760E02
(1703560157.816530) can0 181356F4#2E360635110010
(1703560157.819545) can0 1812F456#F30E760E0000FD
(1703560157.832206) can0 181056F4#A510760E02
(1703560157.881871) can0 181056F4#A510760E02
(1703560157.886842) can0 1812F456#F30E760E0000FD
(1703560157.930970) can0 181056F4#A510760E02
(1703560157.955799) can0 1812F456#F30E760E0000FD
(1703560157.981753) can0 181056F4#A510760E02
(1703560157.991100) can0 1CEC56F4#10090002FF001100
(1703560157.991668) can0 1CECF456#110201FFFF001100
(1703560158.000578) can0 1CEB56F4#01EF0E780E4FE14D
(1703560158.010845) can0 1CEB56F4#020000FFFFFFFFFF
(1703560158.011748) can0 1CECF456#13090002FF001100
(1703560158.026311) can0 1812F456#F30E760E0000FD
(1703560158.030990) can0 181056F4#A510760E02
(1703560158.061126) can0 181356F4#2E3606350F0010
(1703560158.085060) can0 181056F4#A510760E02
(1703560158.093744) can0 1812F456#F30E760E0000FD
(1703560158.132760) can0 181056F4#A510760E02
(1703560158.163026) can0 1812F456#F30E760E0000FD
(1703560158.181324) can0 181056F4#A510760E02
(1703560158.230474) can0 1812F456#F30E760E0000FD
(1703560158.230833) can0 181056F4#A510760E02
(1703560158.241160) can0 1CEC56F4#10090002FF001100
(1703560158.242770) can0 1CECF456#110201FFFF001100
(1703560158.250639) can0 1CEB56F4#01EF0E770E4F414D
(1703560158.260611) can0 1CEB56F4#020000FFFFFFFFFF
(1703560158.261822) can0 1CECF456#13090002FF001100
(1703560158.286414) can0 181056F4#A510760E02
(1703560158.299753) can0 1812F456#F30E760E0000FD
(1703560158.310858) can0 181356F4#333606350F0010
(1703560158.330804) can0 181056F4#A510760E02
(1703560158.368623) can0 1812F456#F30E760E0000FD
(1703560158.381334) can0 181056F4#A510760E02
(1703560158.440091) can0 181056F4#A510760E02
(1703560158.440435) can0 1812F456#F50E760E0000FD
(1703560158.484094) can0 181056F4#A510760E02
(1703560158.491550) can0 1CEC56F4#10090002FF001100
(1703560158.492622) can0 1CECF456#110201FFFF001100
(1703560158.500701) can0 1CEB56F4#01F00E7A0E4FA14D
(1703560158.506208) can0 1812F456#F50E760E0000FD
(1703560158.510660) can0 1CEB56F4#020000FFFFFFFFFF
(1703560158.511331) can0 1CECF456#13090002FF001100
(1703560158.535455) can0 181056F4#A510760E02
(1703560158.563385) can0 181356F4#3C360635180010
(1703560158.581828) can0 1812F456#F50E760E0000FD
(1703560158.582057) can0 181056F4#A510760E02
(1703560158.631516) can0 181056F4#A510760E02
(1703560158.644509) can0 1812F456#F50E760E0000FD
(1703560158.683012) can0 181056F4#A510760E02
(1703560158.712573) can0 1812F456#F50E760E0000FD
(1703560158.730881) can0 181056F4#A510760E02
(1703560158.740855) can0 1CEC56F4#10090002FF001100
(1703560158.742104) can0 1CECF456#110201FFFF001100
(1703560158.750574) can0 1CEB56F4#01F00E760E4FE14D
(1703560158.760374) can0 1CEB56F4#020000FFFFFFFFFF
(1703560158.762327) can0 1CECF456#13090002FF001100
(1703560158.781654) can0 181056F4#A510760E02
(1703560158.782783) can0 1812F456#F50E760E0000FD
(1703560158.811027) can0 181356F4#2A3606350F0010
(1703560158.830825) can0 181056F4#A510760E02
(1703560158.851855) can0 1812F456#F50E760E0000FD
(1703560158.883728) can0 181056F4#A510580E02
(1703560158.920565) can0 1812F456#F50E760E0000FD
(1703560158.931149) can0 181056F4#A510580E02
(1703560158.986379) can0 181056F4#A510580E02
(1703560158.990171) can0 1812F456#F50E760E0000FD
(1703560158.991856) can0 1CEC56F4#10090002FF001100
(1703560158.993327) can0 1CECF456#110201FFFF001100
(1703560159.000296) can0 1CEB56F4#01F10E770E4F414D
(1703560159.010518) can0 1CEB56F4#022D00FFFFFFFFFF
(1703560159.011643) can0 1CECF456#13090002FF001100
(1703560159.031278) can0 181056F4#A510580E02
(1703560159.061494) can0 1812F456#F50E760E0000FD
(1703560159.061794) can0 181356F4#3C360635110010
(1703560159.084544) can0 181056F4#A510580E02
(1703560159.128915) can0 1812F456#F50E760E0000FD
(1703560159.130748) can0 181056F4#A510580E02
(1703560159.181237) can0 181056F4#A510580E02
(1703560159.197484) can0 1812F456#F50E760E0000FD
(1703560159.235254) can0 181056F4#A510580E02
(1703560159.242726) can0 1CEC56F4#10090002FF001100
(1703560159.242837) can0 1CECF456#110201FFFF001100
(1703560159.250802) can0 1CEB56F4#01F00E7B0E4F914D
(1703560159.269413) can0 1CEB56F4#022C00FFFFFFFFFF
(1703560159.269538) can0 1CECF456#13090002FF001100
(1703560159.269787) can0 1812F456#F50E760E0000FD
(1703560159.283133) can0 181056F4#A510580E02
(1703560159.310924) can0 181356F4#533606350F0010
(1703560159.330982) can0 181056F4#A510580E02
(1703560159.345192) can0 1812F456#F50E760E0000FD
(1703560159.394492) can0 181056F4#A510580E02
(1703560159.404717) can0 1812F456#F50E760E0000FD
(1703560159.437364) can0 181056F4#A510580E02
(1703560159.472462) can0 1812F456#F50E760E0000FD
(1703560159.480982) can0 181056F4#A510580E02
(1703560159.491776) can0 1CEC56F4#10090002FF001100
(1703560159.493684) can0 1CECF456#110201FFFF001100
(1703560159.502357) can0 1CEB56F4#01F20E770E4F214D
(1703560159.515876) can0 1CEB56F4#022C00FFFFFFFFFF
(1703560159.516213) can0 1CECF456#13090002FF001100
(1703560159.534260) can0 181056F4#A510580E02
(1703560159.543600) can0 1812F456#F50E760E0000FD
(1703560159.562755) can0 181356F4#3C360635180010
(1703560159.580996) can0 181056F4#A510580E02
(1703560159.611265) can0 1812F456#F60E760E0000FD
(1703560159.631445) can0 181056F4#A510580E02
(1703560159.689928) can0 1812F456#F60E760E0000FD
(1703560159.690176) can0 181056F4#A510580E02
(1703560159.730862) can0 181056F4#A510580E02
(1703560159.741130) can0 1CEC56F4#10090002FF001100
(1703560159.741605) can0 1CECF456#110201FFFF001100
(1703560159.749157) can0 1812F456#F60E760E0000FD
(1703560159.751085) can0 1CEB56F4#01F10E750E4F514D
(1703560159.760624) can0 1CEB56F4#022C00FFFFFFFFFF
(1703560159.761580) can0 1CECF456#13090002FF001100
(1703560159.780831) can0 181056F4#A510580E02
(1703560159.812015) can0 181356F4#253606350F0010
(1703560159.818548) can0 1812F456#F60E760E0000FD
(1703560159.834744) can0 181056F4#A510580E02
(1703560159.880902) can0 181056F4#A510580E02
(1703560159.887061) can0 1812F456#F60E760E0000FD
(1703560159.932402) can0 181056F4#A510580E02
(1703560159.956256) can0 1812F456#F60E760E0000FD
(1703560159.983452) can0 181056F4#A510580E02
(1703560159.992759) can0 1CEC56F4#10090002FF001100
(1703560159.993003) can0 1CECF456#110201FFFF001100
(1703560160.000639) can0 1CEB56F4#01F10E790E4FC14D
(1703560160.016936) can0 1CEB56F4#022D00FFFFFFFFFF
(1703560160.017181) can0 1CECF456#13090002FF001100
(1703560160.024597) can0 1812F456#F60E760E0000FD
(1703560160.031043) can0 181056F4#A510580E02
(1703560160.061246) can0 181356F4#253606350F0010
(1703560160.081524) can0 181056F4#A510580E02
(1703560160.093565) can0 1812F456#F60E760E0000FD
(1703560160.135952) can0 181056F4#A510580E02
(1703560160.163448) can0 1812F456#F60E760E0000FD
(1703560160.181044) can0 181056F4#A510580E02
(1703560160.231841) can0 181056F4#A510580E02
(1703560160.232167) can0 1812F456#F60E760E0000FD
(1703560160.241843) can0 1CEC56F4#10090002FF001100
(1703560160.242788) can0 1CECF456#110201FFFF001100
(1703560160.251753) can0 1CEB56F4#01F20E750E50314D
(1703560160.261584) can0 1CEB56F4#022D00FFFFFFFFFF
(1703560160.262054) can0 1CECF456#13090002FF001100
(1703560160.282806) can0 181056F4#A510580E02
(1703560160.303400) can0 1812F456#F60E760E0000FD
(1703560160.315118) can0 181356F4#25360635110010
(1703560160.333723) can0 181056F4#A510580E02
(1703560160.369263) can0 1812F456#F60E760E0000FD
(1703560160.389249) can0 181056F4#A510580E02
(1703560160.431018) can0 181056F4#A510580E02
(1703560160.437808) can0 1812F456#F60E760E0000FD
(1703560160.481052) can0 181056F4#A510580E02
(1703560160.491068) can0 1CEC56F4#10090002FF001100
(1703560160.491669) can0 1CECF456#110201FFFF001100
(1703560160.500613) can0 1CEB56F4#01F30E780E50514D
(1703560160.507339) can0 1812F456#F60E760E0000FD
(1703560160.510834) can0 1CEB56F4#022D00FFFFFFFFFF
(1703560160.511838) can0 1CECF456#13090002FF001100
(1703560160.532078) can0 181056F4#A510580E02
(1703560160.561047) can0 181356F4#3D3606350F0010
(1703560160.579148) can0 1812F456#F60E760E0000FD
(1703560160.586491) can0 181056F4#A510580E02
(1703560160.631242) can0 181056F4#A510580E02
(1703560160.645827) can0 1812F456#F60E760E0000FD
(1703560160.681179) can0 181056F4#A510580E02
(1703560160.713993) can0 1812F456#F60E760E0000FD
(1703560160.731258) can0 181056F4#A510580E02
(1703560160.741377) can0 1CEC56F4#10090002FF001100
(1703560160.741635) can0 1CECF456#110201FFFF001100
(1703560160.750774) can0 1CEB56F4#01F20E7C0E50514D
(1703560160.763448) can0 1CEB56F4#022D00FFFFFFFFFF
(1703560160.763637) can0 1CECF456#13090002FF001100
(1703560160.780995) can0 181056F4#A510580E02
(1703560160.783793) can0 1812F456#F60E760E0000FD
(1703560160.811051) can0 181356F4#29360635110010
(1703560160.831177) can0 181056F4#A510580E02
(1703560160.853611) can0 1812F456#F70E760E0000FD
(1703560160.881927) can0 181056F4#A510580E02
(1703560160.921454) can0 1812F456#F70E760E0000FD
(1703560160.931022) can0 181056F4#A510580E02
(1703560160.981353) can0 181056F4#A510580E02
(1703560160.989934) can0 1812F456#F70E760E0000FD
(1703560160.990895) can0 1CEC56F4#10090002FF001100
(1703560160.992720) can0 1CECF456#110201FFFF001100
(1703560161.000624) can0 1CEB56F4#01F20E720E50E14D
(1703560161.010930) can0 1CEB56F4#022D00FFFFFFFFFF
(1703560161.012391) can0 1CECF456#13090002FF001100
(1703560161.031747) can0 181056F4#A510580E02
(1703560161.060160) can0 1812F456#F70E760E0000FD
(1703560161.062939) can0 181356F4#3C3606350F0010
(1703560161.083501) can0 181056F4#A510580E02
(1703560161.128247) can0 1812F456#F70E760E0000FD
(1703560161.131022) can0 181056F4#A510580E02
(1703560161.181053) can0 181056F4#A510580E02
(1703560161.202851) can0 1812F456#F70E760E0000FD
(1703560161.231003) can0 181056F4#A510580E02
(1703560161.241316) can0 1CEC56F4#10090002FF001100
(1703560161.241610) can0 1CECF456#110201FFFF001100
(1703560161.250794) can0 1CEB56F4#01F40E740E50314D
(1703560161.265957) can0 1CEB56F4#022D00FFFFFFFFFF
(1703560161.266146) can0 1CECF456#13090002FF001100
(1703560161.266556) can0 1812F456#F70E760E0000FD
(1703560161.291815) can0 181056F4#A510580E02
(1703560161.311254) can0 181356F4#3C3606350F0010
(1703560161.331275) can0 181056F4#A510580E02
(1703560161.336073) can0 1812F456#F70E760E0000FD
(1703560161.383626) can0 181056F4#A510580E02
(1703560161.403842) can0 1812F456#F70E760E0000FD
(1703560161.431442) can0 181056F4#A510580E02
(1703560161.473422) can0 1812F456#F70E760E0000FD
(1703560161.481083) can0 181056F4#A510580E02
(1703560161.491135) can0 1CEC56F4#10090002FF001100
(1703560161.491739) can0 1CECF456#110201FFFF001100
(1703560161.500469) can0 1CEB56F4#01F50E760E50314D
(1703560161.510584) can0 1CEB56F4#022D00FFFFFFFFFF
(1703560161.511830) can0 1CECF456#13090002FF001100
(1703560161.532974) can0 181056F4#A510580E02
(1703560161.541708) can0 1812F456#F70E760E0000FD
(1703560161.561750) can0 181356F4#3C360635110010
(1703560161.581311) can0 181056F4#A510580E02
(1703560161.611234) can0 1812F456#F70E760E0000FD
(1703560161.630863) can0 181056F4#A510580E02
(1703560161.681345) can0 1812F456#F70E760E0000FD
(1703560161.681701) can0 181056F4#A510580E02
(1703560161.731120) can0 181056F4#A510580E02
(1703560161.741325) can0 1CEC56F4#10090002FF001100
(1703560161.741577) can0 1CECF456#110201FFFF001100
(1703560161.749226) can0 1812F456#F70E760E0000FD
(1703560161.750596) can0 1CEB56F4#01F40E750E50514D
(1703560161.760762) can0 1CEB56F4#022D00FFFFFFFFFF
(1703560161.761475) can0 1CECF456#13090002FF001100
(1703560161.780943) can0 181056F4#A510580E02
(1703560161.812004) can0 181356F4#243606350F0010
(1703560161.818302) can0 1812F456#F70E760E0000FD
(1703560161.830905) can0 181056F4#A510580E02
(1703560161.881079) can0 181056F4#A510580E02
(1703560161.887766) can0 1812F456#F70E760E0000FD
(1703560161.933525) can0 181056F4#A510580E02
(1703560161.956384) can0 1812F456#F70E760E0000FD
(1703560161.986007) can0 181056F4#A510580E02
(1703560162.000464) can0 1CEC56F4#10090002FF001100
(1703560162.001056) can0 1CECF456#110201FFFF001100
(1703560162.003029) can0 1CEB56F4#01F70E590E50E14D
(1703560162.011450) can0 1CEB56F4#022D00FFFFFFFFFF
(1703560162.012020) can0 1CECF456#13090002FF001100
(1703560162.024974) can0 1812F456#F70E760E0000FD
(1703560162.032430) can0 181056F4#A510580E02
(1703560162.063417) can0 181356F4#2A360635110010
(1703560162.081492) can0 181056F4#A510580E02
(1703560162.093994) can0 1812F456#F80E760E0000FD
(1703560162.137882) can0 181056F4#A510580E02
(1703560162.162731) can0 1812F456#F80E760E0000FD
(1703560162.181816) can0 181056F4#A510580E02
(1703560162.231090) can0 181056F4#A510580E02
(1703560162.231410) can0 1812F456#F80E760E0000FD
(1703560162.241054) can0 1CEC56F4#10090002FF001100
(1703560162.241689) can0 1CECF456#110201FFFF001100
(1703560162.250713) can0 1CEB56F4#01F70E5C0E50314D
(1703560162.260595) can0 1CEB56F4#022D00FFFFFFFFFF
(1703560162.261078) can0 1CECF456#13090002FF001100
(1703560162.281021) can0 181056F4#A510580E02
(1703560162.300265) can0 1812F456#F80E760E0000FD
(1703560162.314677) can0 181356F4#2E3606350F0010
(1703560162.333431) can0 181056F4#A510580E02
(1703560162.369563) can0 1812F456#F80E760E0000FD
(1703560162.380906) can0 181056F4#A510580E02
(1703560162.431390) can0 181056F4#A510580E02
(1703560162.438115) can0 1812F456#F80E760E0000FD
(1703560162.481108) can0 181056F4#A510580E02
(1703560162.492396) can0 1CEC56F4#10090002FF001100
(1703560162.492750) can0 1CECF456#110201FFFF001100
(1703560162.500356) can0 1CEB56F4#01F70E5F0E50414D
(1703560162.519856) can0 1812F456#F80E760E0000FD
(1703560162.520435) can0 1CEB56F4#022D00FFFFFFFFFF
(1703560162.520697) can0 1CECF456#13090002FF001100
(1703560162.537157) can0 181056F4#A510580E02
(1703560162.560948) can0 181356F4#533606350F0010
(1703560162.576025) can0 1812F456#F80E760E0000FD
(1703560162.580923) can0 181056F4#A510580E02
(1703560162.631078) can0 181056F4#A510580E02
(1703560162.644807) can0 1812F456#F80E760E0000FD
(1703560162.681723) can0 181056F4#A510580E02
(1703560162.728192) can0 1812F456#F80E760E0000FD
(1703560162.730814) can0 181056F4#A510580E02
(1703560162.742098) can0 1CEC56F4#10090002FF001100
(1703560162.742567) can0 1CECF456#110201FFFF001100
(1703560162.750615) can0 1CEB56F4#01F90E5D0E50814D
(1703560162.760469) can0 1CEB56F4#022D00FFFFFFFFFF
(1703560162.761525) can0 1CECF456#13090002FF001100
(1703560162.780935) can0 181056F4#A510580E02
(1703560162.783840) can0 1812F456#F80E760E0000FD
(1703560162.810818) can0 181356F4#543606350F0010
(1703560162.833859) can0 181056F4#A510580E02
(1703560162.852943) can0 1812F456#F80E760E0000FD
(1703560162.881278) can0 181056F4#A5103A0E02
(1703560162.922207) can0 1812F456#F80E760E0000FD
(1703560162.930874) can0 181056F4#A5103A0E02
(1703560162.981600) can0 181056F4#A5103A0E02
(1703560162.990167) can0 1812F456#F80E760E0000FD
(1703560162.990949) can0 1CEC56F4#10090002FF001100
(1703560162.991567) can0 1CECF456#110201FFFF001100
(1703560163.000206) can0 1CEB56F4#01F90E5A0E50514D
(1703560163.010894) can0 1CEB56F4#022C00FFFFFFFFFF
(1703560163.019450) can0 1CECF456#13090002FF001100
(1703560163.037609) can0 181056F4#A5103A0E02
(1703560163.059011) can0 1812F456#F80E760E0000FD
(1703560163.061143) can0 181356F4#3D3606350F0010
(1703560163.081066) can0 181056F4#A5103A0E02
(1703560163.130887) can0 1812F456#F80E760E0000FD
(1703560163.131174) can0 181056F4#A5103A0E02
(1703560163.182644) can0 181056F4#A5103A0E02
(1703560163.197661) can0 1812F456#FD0E580E0000FD
(1703560163.230989) can0 181056F4#A5103A0E02
(1703560163.241175) can0 1CEC56F4#10090002FF001100
(1703560163.242309) can0 1CECF456#110201FFFF001100
(1703560163.252318) can0 1CEB56F4#01F70E620E50A14D
(1703560163.260370) can0 1CEB56F4#022C00FFFFFFFFFF
(1703560163.262391) can0 1CECF456#13090002FF001100
(1703560163.267805) can0 1812F456#FD0E580E0000FD
(1703560163.280831) can0 181056F4#A5103A0E02
(1703560163.312231) can0 181356F4#2E360635110010
(1703560163.338580) can0 181056F4#A5103A0E02
(1703560163.338791) can0 1812F456#FD0E580E0000FD
(1703560163.380980) can0 181056F4#A5103A0E02
(1703560163.403819) can0 1812F456#FD0E580E0000FD
(1703560163.430821) can0 181056F4#A5103A0E02
(1703560163.472855) can0 1812F456#FD0E580E0000FD
(1703560163.481336) can0 181056F4#A5103A0E02
(1703560163.491119) can0 1CEC56F4#10090002FF001100
(1703560163.491595) can0 1CECF456#110201FFFF001100
(1703560163.500443) can0 1CEB56F4#01FA0E5A0E50914D
(1703560163.510329) can0 1CEB56F4#022C00FFFFFFFFFF
(1703560163.511725) can0 1CECF456#13090002FF001100
(1703560163.530865) can0 181056F4#A5103A0E02
(1703560163.541392) can0 1812F456#FD0E580E0000FD
(1703560163.563080) can0 181356F4#2E3606350F0010
(1703560163.587773) can0 181056F4#A5103A0E02
(1703560163.613103) can0 1812F456#FD0E580E0000FD
(1703560163.631468) can0 181056F4#A5103A0E02
(1703560163.680159) can0 1812F456#FD0E580E0000FD
(1703560163.680679) can0 181056F4#A5103A0E02
(1703560163.731386) can0 181056F4#A5103A0E02
(1703560163.740922) can0 1CEC56F4#10090002FF001100
(1703560163.743923) can0 1CECF456#110201FFFF001100
(1703560163.752906) can0 1812F456#FD0E580E0000FD
(1703560163.753156) can0 1CEB56F4#01F90E560E50414D
(1703560163.760427) can0 1CEB56F4#022C00FFFFFFFFFF
(1703560163.761652) can0 1CECF456#13090002FF001100
(1703560163.780465) can0 181056F4#A5103A0E02
(1703560163.811210) can0 181356F4#2E360635110010
(1703560163.818370) can0 1812F456#FD0E580E0000FD
(1703560163.841386) can0 181056F4#A5103A0E02
(1703560163.880936) can0 181056F4#A5103A0E02
(1703560163.887626) can0 1812F456#FD0E580E0000FD
(1703560163.931533) can0 181056F4#A5103A0E02
(1703560163.956526) can0 1812F456#FD0E580E0000FD
(1703560163.980681) can0 181056F4#A5103A0E02
(1703560163.990821) can0 1CEC56F4#10090002FF001100
(1703560163.992571) can0 1CECF456#110201FFFF001100
(1703560164.000458) can0 1CEB56F4#01FA0E5E0E50A14D
(1703560164.010814) can0 1CEB56F4#022C00FFFFFFFFFF
(1703560164.011320) can0 1CECF456#13090002FF001100
(1703560164.024756) can0 1812F456#FD0E580E0000FD
(1703560164.031727) can0 181056F4#A5103A0E02
(1703560164.063885) can0 181356F4#2A3606350F0010
(1703560164.080709) can0 181056F4#A5103A0E02
(1703560164.104400) can0 1812F456#FD0E580E0000FD
(1703560164.130961) can0 181056F4#A5103A0E02
(1703560164.164452) can0 1812F456#FD0E580E0000FD
(1703560164.181783) can0 181056F4#A5103A0E02
(1703560164.230779) can0 181056F4#A5103A0E02
(1703560164.231337) can0 1812F456#FD0E580E0000FD
(1703560164.240698) can0 1CEC56F4#10090002FF001100
(1703560164.242158) can0 1CECF456#110201FFFF001100
(1703560164.250416) can0 1CEB56F4#01FA0E5C0E50C14D
(1703560164.260364) can0 1CEB56F4#022C00FFFFFFFFFF
(1703560164.261494) can0 1CECF456#13090002FF001100
(1703560164.280649) can0 181056F4#A5103A0E02
(1703560164.301120) can0 1812F456#FD0E580E0000FD
(1703560164.310590) can0 181356F4#543606350F0010
(1703560164.340762) can0 181056F4#A5103A0E02
(1703560164.369824) can0 1812F456#FD0E580E0000FD
(1703560164.380799) can0 181056F4#A5103A0E02
(1703560164.430728) can0 181056F4#A5103A0E02
(1703560164.438468) can0 1812F456#FF0E580E0000FD
(1703560164.481039) can0 181056F4#A5103A0E02
(1703560164.491755) can0 1CEC56F4#10090002FF001100
(1703560164.493131) can0 1CECF456#110201FFFF001100
(1703560164.500409) can0 1CEB56F4#01F90E550E50E14D
(1703560164.507987) can0 1812F456#FF0E580E0000FD
(1703560164.510397) can0 1CEB56F4#022C00FFFFFFFFFF
(1703560164.511111) can0 1CECF456#13090002FF001100
(1703560164.530565) can0 181056F4#A5103A0E02
(1703560164.560841) can0 181356F4#3C3606350F0010
(1703560164.577973) can0 1812F456#FF0E580E0000FD
(1703560164.581734) can0 181056F4#A5103A0E02
(1703560164.631104) can0 181056F4#A5103A0E02
(1703560164.644998) can0 1812F456#FF0E580E0000FD
(1703560164.681623) can0 181056F4#A5103A0E02
(1703560164.714730) can0 1812F456#FF0E580E0000FD
(1703560164.730750) can0 181056F4#A5103A0E02
(1703560164.741649) can0 1CEC56F4#10090002FF001100
(1703560164.743247) can0 1CECF456#110201FFFF001100
(1703560164.756479) can0 1CEB56F4#01FB0E580E50E14D
(1703560164.760976) can0 1CEB56F4#022C00FFFFFFFFFF
(1703560164.761158) can0 1CECF456#13090002FF001100
(1703560164.780861) can0 181056F4#A5103A0E02
(1703560164.784013) can0 1812F456#FF0E580E0000FD
(1703560164.810772) can0 181356F4#3C3606350F0010
(1703560164.830476) can0 181056F4#A5103A0E02
(1703560164.853030) can0 1812F456#FF0E580E0000FD
(1703560164.880744) can0 181056F4#A5103A0E02
(1703560164.921548) can0 1812F456#FF0E580E0000FD
(1703560164.930578) can0 181056F4#A5103A0E02
(1703560164.980856) can0 181056F4#A5103A0E02
(1703560164.991142) can0 1812F456#FF0E580E0000FD
(1703560164.991269) can0 1CEC56F4#10090002FF001100
(1703560164.994968) can0 1CECF456#110201FFFF001100
(1703560165.000205) can0 1CEB56F4#01FB0E590E50C14D
(1703560165.010377) can0 1CEB56F4#022C00FFFFFFFFFF
(1703560165.012123) can0 1CECF456#13090002FF001100
(1703560165.030614) can0 181056F4#A5103A0E02
(1703560165.060647) can0 1812F456#FF0E580E0000FD
(1703560165.060846) can0 181356F4#3C360635110010
(1703560165.081677) can0 181056F4#A5103A0E02
(1703560165.128064) can0 1812F456#FF0E580E0000FD
(1703560165.130650) can0 181056F4#A5103A0E02
(1703560165.180971) can0 181056F4#A5103A0E02
(1703560165.197087) can0 1812F456#FF0E580E0000FD
(1703560165.231421) can0 181056F4#A5103A0E02
(1703560165.240833) can0 1CEC56F4#10090002FF001100
(1703560165.242690) can0 1CECF456#110201FFFF001100
(1703560165.250319) can0 1CEB56F4#01F90E560E50C14D
(1703560165.262165) can0 1CEB56F4#022C00FFFFFFFFFF
(1703560165.262520) can0 1CECF456#13090002FF001100
(1703560165.276431) can0 1812F456#FF0E580E0000FD
(1703560165.281361) can0 181056F4#A5103A0E02
(1703560165.312979) can0 181356F4#2A360635180010
(1703560165.332660) can0 181056F4#A5103A0E02
(1703560165.335076) can0 1812F456#FF0E580E0000FD
(1703560165.380654) can0 181056F4#A5103A0E02
(1703560165.405707) can0 1812F456#FF0E580E0000FD
(1703560165.430710) can0 181056F4#A5103A0E02
(1703560165.473044) can0 1812F456#FF0E580E0000FD
(1703560165.480714) can0 181056F4#A5103A0E02
(1703560165.491035) can0 1CEC56F4#10090002FF001100
(1703560165.496394) can0 1CECF456#110201FFFF001100
(1703560165.500456) can0 1CEB56F4#01F90E5A0E50E14D
(1703560165.510393) can0 1CEB56F4#022C00FFFFFFFFFF
(1703560165.512433) can0 1CECF456#13090002FF001100
(1703560165.530628) can0 181056F4#A5103A0E02
(1703560165.541956) can0 1812F456#FF0E580E0000FD
(1703560165.561217) can0 181356F4#2E3606350F0010
(1703560165.581182) can0 181056F4#A5103A0E02
(1703560165.611293) can0 1812F456#000F580E0000FD
(1703560165.632479) can0 181056F4#A5103A0E02
(1703560165.680226) can0 1812F456#000F580E0000FD
(1703560165.680708) can0 181056F4#A5103A0E02
(1703560165.731290) can0 181056F4#A5103A0E02
(1703560165.741453) can0 1CEC56F4#10090002FF001100
(1703560165.741936) can0 1CECF456#110201FFFF001100
(1703560165.749959) can0 1812F456#000F580E0000FD
(1703560165.750318) can0 1CEB56F4#01FA0E5C0E50C14D
(1703560165.761028) can0 1CEB56F4#022C00FFFFFFFFFF
(1703560165.762141) can0 1CECF456#13090002FF001100
(1703560165.783840) can0 181056F4#A5103A0E02
(1703560165.814894) can0 181356F4#3D360635180010
(1703560165.819749) can0 1812F456#000F580E0000FD
(1703560165.834362) can0 181056F4#A5103A0E02
(1703560165.880677) can0 181056F4#A5103A0E02
(1703560165.889249) can0 1812F456#000F580E0000FD
(1703560165.930707) can0 181056F4#A5103A0E02
(1703560165.956931) can0 1812F456#000F580E0000FD
(1703560165.980758) can0 181056F4#A5103A0E02
(1703560165.990804) can0 1CEC56F4#10090002FF001100
(1703560165.992345) can0 1CECF456#110201FFFF001100
(1703560166.000273) can0 1CEB56F4#01FE0E3A0E51314D
(1703560166.010139) can0 1CEB56F4#022C00FFFFFFFFFF
(1703560166.013670) can0 1CECF456#13090002FF001100
(1703560166.031797) can0 1812F456#000F580E0000FD
(1703560166.032062) can0 181056F4#A5103A0E02
(1703560166.060787) can0 181356F4#2A3606350F0010
(1703560166.081226) can0 181056F4#A5103A0E02
(1703560166.100217) can0 1812F456#000F580E0000FD
(1703560166.130668) can0 181056F4#A5103A0E02
(1703560166.163320) can0 1812F456#000F580E0000FD
(1703560166.180589) can0 181056F4#A5103A0E02
(1703560166.230510) can0 181056F4#A5103A0E02
(1703560166.231996) can0 1812F456#000F580E0000FD
(1703560166.241027) can0 1CEC56F4#10090002FF001100
(1703560166.241588) can0 1CECF456#110201FFFF001100
(1703560166.250514) can0 1CEB56F4#01FE0E3D0E51C14D
(1703560166.262357) can0 1CEB56F4#022C00FFFFFFFFFF
(1703560166.262856) can0 1CECF456#13090002FF001100
(1703560166.281346) can0 181056F4#A5103A0E02
(1703560166.301125) can0 1812F456#000F580E0000FD
(1703560166.311042) can0 181356F4#2E360635110010
(1703560166.331135) can0 181056F4#A5103A0E02
(1703560166.376830) can0 1812F456#000F580E0000FD
(1703560166.381053) can0 181056F4#A5103A0E02
(1703560166.430874) can0 181056F4#A5103A0E02
(1703560166.439594) can0 1812F456#000F580E0000FD
(1703560166.481586) can0 181056F4#A5103A0E02
(1703560166.490735) can0 1CEC56F4#10090002FF001100
(1703560166.491310) can0 1CECF456#110201FFFF001100
(1703560166.500338) can0 1CEB56F4#01FE0E430E51C14D
(1703560166.507942) can0 1812F456#000F580E0000FD
(1703560166.512849) can0 1CEB56F4#022C00FFFFFFFFFF
(1703560166.513074) can0 1CECF456#13090002FF001100
(1703560166.534799) can0 181056F4#A5103A0E02
(1703560166.560876) can0 181356F4#2E3606350F0010
(1703560166.576698) can0 1812F456#000F580E0000FD
(1703560166.581058) can0 181056F4#A5103A0E02
(1703560166.643398) can0 181056F4#A5103A0E02
(1703560166.664377) can0 1812F456#000F580E0000FD
(1703560166.681827) can0 181056F4#A5103A0E02
(1703560166.717952) can0 1812F456#000F580E0000FD
(1703560166.731287) can0 181056F4#A5103A0E02
(1703560166.742006) can0 1CEC56F4#10090002FF001100
(1703560166.742170) can0 1CECF456#110201FFFF001100
(1703560166.750334) can0 1CEB56F4#01FE0E380E51A14D
(1703560166.760278) can0 1CEB56F4#022C00FFFFFFFFFF
(1703560166.760872) can0 1CECF456#13090002FF001100
(1703560166.780469) can0 181056F4#A5103A0E02
(1703560166.784139) can0 1812F456#000F580E0000FD
(1703560166.810545) can0 181356F4#2A3606350F0010
(1703560166.830692) can0 181056F4#A5103A0E02
(1703560166.856081) can0 1812F456#030F3A0E0000FD
(1703560166.880707) can0 181056F4#A5103A0E02
(1703560166.921750) can0 1812F456#030F3A0E0000FD
(1703560166.930561) can0 181056F4#A5103A0E02
(1703560166.980610) can0 181056F4#A5103A0E02
(1703560166.992744) can0 1812F456#030F3A0E0000FD
(1703560166.992924) can0 1CEC56F4#10090002FF001100
(1703560166.993442) can0 1CECF456#110201FFFF001100
(1703560167.000483) can0 1CEB56F4#01FF0E3B0E51E14D
(1703560167.010627) can0 1CEB56F4#022C00FFFFFFFFFF
(1703560167.014027) can0 1CECF456#13090002FF001100
(1703560167.033673) can0 181056F4#A5103A0E02
(1703560167.060440) can0 1812F456#030F3A0E0000FD
(1703560167.060898) can0 181356F4#253606350F0010
(1703560167.080730) can0 181056F4#A5103A0E02
(1703560167.128232) can0 1812F456#030F3A0E0000FD
(1703560167.130821) can0 181056F4#A5103A0E02
(1703560167.182149) can0 181056F4#A5103A0E02
(1703560167.196934) can0 1812F456#030F3A0E0000FD
(1703560167.231242) can0 181056F4#A5103A0E02
(1703560167.240851) can0 1CEC56F4#10090002FF001100
(1703560167.243122) can0 1CECF456#110201FFFF001100
(1703560167.250811) can0 1CEB56F4#01FE0E3B0E51E14D
(1703560167.265779) can0 1CEB56F4#022B00FFFFFFFFFF
(1703560167.266087) can0 1CECF456#13090002FF001100
(1703560167.267022) can0 1812F456#030F3A0E0000FD
(1703560167.280835) can0 181056F4#A5103A0E02
(1703560167.310746) can0 181356F4#3C3606350F0010
(1703560167.331739) can0 181056F4#A5103A0E02
(1703560167.334869) can0 1812F456#030F3A0E0000FD
(1703560167.380694) can0 181056F4#A5103A0E02
(1703560167.403533) can0 1812F456#030F3A0E0000FD
(1703560167.433454) can0 181056F4#A5103A0E02
(1703560167.473080) can0 1812F456#030F3A0E0000FD
(1703560167.480819) can0 181056F4#A5103A0E02
(1703560167.491270) can0 1CEC56F4#10090002FF001100
(1703560167.491934) can0 1CECF456#110201FFFF001100
(1703560167.500168) can0 1CEB56F4#01FD0E360E51C14D
(1703560167.512793) can0 1CEB56F4#022B00FFFFFFFFFF
(1703560167.512924) can0 1CECF456#13090002FF001100
(1703560167.530421) can0 181056F4#A5103A0E02
(1703560167.541944) can0 1812F456#030F3A0E0000FD
(1703560167.561137) can0 181356F4#3C3606350F0010
(1703560167.580875) can0 181056F4#A5103A0E02
(1703560167.610962) can0 1812F456#030F3A0E0000FD
(1703560167.630908) can0 181056F4#A5103A0E02
(1703560167.684243) can0 1812F456#030F3A0E0000FD
(1703560167.684399) can0 181056F4#A5103A0E02
(1703560167.730909) can0 181056F4#A5103A0E02
(1703560167.740904) can0 1CEC56F4#10090002FF001100
(1703560167.741932) can0 1CECF456#110201FFFF001100
(1703560167.750288) can0 1812F456#030F3A0E0000FD
(1703560167.750412) can0 1CEB56F4#01FE0E3E0E51C14D
(1703560167.760360) can0 1CEB56F4#022B00FFFFFFFFFF
(1703560167.761928) can0 1CECF456#13090002FF001100
(1703560167.780540) can0 181056F4#A5103A0E02
(1703560167.811061) can0 181356F4#2E3606350F0010
(1703560167.821929) can0 1812F456#030F3A0E0000FD
(1703560167.830678) can0 181056F4#A5103A0E02
(1703560167.880790) can0 181056F4#A5103A0E02
(1703560167.888016) can0 1812F456#030F3A0E0000FD
(1703560167.931038) can0 181056F4#A5103A0E02
(1703560167.957149) can0 1812F456#030F3A0E0000FD
(1703560167.981441) can0 181056F4#A5103A0E02
(1703560167.991273) can0 1CEC56F4#10090002FF001100
(1703560167.995758) can0 1CECF456#110201FFFF001100
(1703560168.004319) can0 1CEB56F4#01FE0E3B0E51E14D
(1703560168.010293) can0 1CEB56F4#022B00FFFFFFFFFF
(1703560168.011944) can0 1CECF456#13090002FF001100
(1703560168.025834) can0 1812F456#060F3A0E0000FD
(1703560168.030768) can0 181056F4#A5103A0E02
(1703560168.062353) can0 181356F4#3C360635110010
(1703560168.080553) can0 181056F4#A5103A0E02
(1703560168.104938) can0 1812F456#060F3A0E0000FD
(1703560168.130827) can0 181056F4#A5103A0E02
(1703560168.163816) can0 1812F456#060F3A0E0000FD
(1703560168.180693) can0 181056F4#A5103A0E02
(1703560168.232073) can0 181056F4#A5103A0E02
(1703560168.233078) can0 1812F456#060F3A0E0000FD
(1703560168.241593) can0 1CEC56F4#10090002FF001100
(1703560168.242811) can0 1CECF456#110201FFFF001100
(1703560168.250967) can0 1CEB56F4#01010F390E51514D
(1703560168.260327) can0 1CEB56F4#022B00FFFFFFFFFF
(1703560168.260643) can0 1CECF456#13090002FF001100
(1703560168.280801) can0 181056F4#A5103A0E02
(1703560168.302318) can0 1812F456#060F3A0E0000FD
(1703560168.316019) can0 181356F4#333606350F0010
(1703560168.330618) can0 181056F4#A5103A0E02
(1703560168.373117) can0 1812F456#060F3A0E0000FD
(1703560168.380916) can0 181056F4#A5103A0E02
(1703560168.432712) can0 181056F4#A5103A0E02
(1703560168.438933) can0 1812F456#060F3A0E0000FD
(1703560168.480879) can0 181056F4#A5103A0E02
(1703560168.490813) can0 1CEC56F4#10090002FF001100
(1703560168.491579) can0 1CECF456#110201FFFF001100
(1703560168.500374) can0 1CEB56F4#01000F3C0E51C14D
(1703560168.507848) can0 1812F456#060F3A0E0000FD
(1703560168.510220) can0 1CEB56F4#022B00FFFFFFFFFF
(1703560168.511813) can0 1CECF456#13090002FF001100
(1703560168.531555) can0 181056F4#A5103A0E02
(1703560168.563774) can0 181356F4#3C3606350F0010
(1703560168.576680) can0 1812F456#060F3A0E0000FD
(1703560168.583545) can0 181056F4#A5103A0E02
(1703560168.632300) can0 181056F4#A5103A0E02
(1703560168.646857) can0 1812F456#060F3A0E0000FD
(1703560168.683851) can0 181056F4#A5103A0E02
(1703560168.714940) can0 1812F456#060F3A0E0000FD
(1703560168.730454) can0 181056F4#A5103A0E02
(1703560168.746434) can0 1CEC56F4#10090002FF001100
(1703560168.746743) can0 1CECF456#110201FFFF001100
(1703560168.751390) can0 1CEB56F4#01000F3C0E51414D
(1703560168.762737) can0 1CEB56F4#022B00FFFFFFFFFF
(1703560168.763040) can0 1CECF456#13090002FF001100
(1703560168.780783) can0 181056F4#A5103A0E02
(1703560168.784295) can0 1812F456#060F3A0E0000FD
(1703560168.810853) can0 181356F4#54360635180010
(1703560168.831096) can0 181056F4#A5103A0E02
(1703560168.853142) can0 1812F456#060F3A0E0000FD
(1703560168.881210) can0 181056F4#A5103A0E02
(1703560168.921406) can0 1812F456#060F3A0E0000FD
(1703560168.932332) can0 181056F4#A5103A0E02
(1703560168.981083) can0 181056F4#A5103A0E02
(1703560168.990627) can0 1812F456#060F3A0E0000FD
(1703560168.990998) can0 1CEC56F4#10090002FF001100
(1703560168.991966) can0 1CECF456#110201FFFF001100
(1703560169.000182) can0 1CEB56F4#01020F3C0E51314D
(1703560169.010350) can0 1CEB56F4#022B00FFFFFFFFFF
(1703560169.010789) can0 1CECF456#13090002FF001100
(1703560169.031950) can0 181056F4#A5103A0E02
(1703560169.061967) can0 1812F456#060F3A0E0000FD
(1703560169.062322) can0 181356F4#3C3606350F0010
(1703560169.081748) can0 181056F4#A510580E02
(1703560169.128611) can0 1812F456#060F3A0E0000FD
(1703560169.136601) can0 181056F4#A510580E02
(1703560169.182404) can0 181056F4#A510580E02
(1703560169.205779) can0 1812F456#080F3A0E0000FD
(1703560169.240543) can0 181056F4#A510580E02
(1703560169.246206) can0 1CEC56F4#10090002FF001100
(1703560169.246280) can0 1CECF456#110201FFFF001100
(1703560169.255500) can0 1CEB56F4#01000F3A0E51E14D
(1703560169.259918) can0 1CEB56F4#022B00FFFFFFFFFF
(1703560169.262739) can0 1CECF456#13090002FF001100
(1703560169.266073) can0 1812F456#080F3A0E0000FD
(1703560169.280765) can0 181056F4#A510580E02
(1703560169.310872) can0 181356F4#54360635110010
(1703560169.331480) can0 181056F4#A510580E02
(1703560169.336662) can0 1812F456#080F3A0E0000FD
(1703560169.383805) can0 181056F4#A510580E02
(1703560169.403725) can0 1812F456#080F3A0E0000FD
(1703560169.440258) can0 181056F4#A510580E02
(1703560169.473099) can0 1812F456#080F3A0E0000FD
(1703560169.483564) can0 181056F4#A510580E02
(1703560169.491379) can0 1CEC56F4#10090002FF001100
(1703560169.491905) can0 1CECF456#110201FFFF001100
(1703560169.503205) can0 1CEB56F4#01010F3B0E51414D
(1703560169.510490) can0 1CEB56F4#022B00FFFFFFFFFF
(1703560169.511833) can0 1CECF456#13090002FF001100
(1703560169.531216) can0 181056F4#A510580E02
(1703560169.541881) can0 1812F456#080F3A0E0000FD
(1703560169.561531) can0 181356F4#2A3606350F0010
(1703560169.581122) can0 181056F4#A510580E02
(1703560169.613111) can0 1812F456#080F3A0E0000FD
(1703560169.630829) can0 181056F4#A510580E02
(1703560169.682924) can0 1812F456#080F3A0E0000FD
(1703560169.683371) can0 181056F4#A510580E02
(1703560169.730854) can0 181056F4#A510580E02
(1703560169.741004) can0 1CEC56F4#10090002FF001100
(1703560169.743104) can0 1CECF456#110201FFFF001100
(1703560169.751302) can0 1CEB56F4#01010F380E51D14D
(1703560169.751517) can0 1812F456#080F3A0E0000FD
(1703560169.760149) can0 1CEB56F4#022B00FFFFFFFFFF
(1703560169.761175) can0 1CECF456#13090002FF001100
(1703560169.781555) can0 181056F4#A510580E02
(1703560169.811408) can0 181356F4#3C360635110010
(1703560169.819845) can0 1812F456#080F3A0E0000FD
(1703560169.836200) can0 181056F4#A510580E02
(1703560169.881871) can0 181056F4#A510580E02
(1703560169.891515) can0 1812F456#080F3A0E0000FD
(1703560169.930932) can0 181056F4#A510580E02
(1703560169.957565) can0 1812F456#080F3A0E0000FD
(1703560169.980830) can0 181056F4#A510580E02
(1703560169.990882) can0 1CEC56F4#10090002FF001100
(1703560169.992750) can0 1CECF456#110201FFFF001100
(1703560170.000314) can0 1CEB56F4#01FE0E560E51E14D
(1703560170.010111) can0 1CEB56F4#022B00FFFFFFFFFF
(1703560170.011112) can0 1CECF456#13090002FF001100
(1703560170.026159) can0 1812F456#080F3A0E0000FD
(1703560170.030363) can0 181056F4#A510580E02
(1703560170.061000) can0 181356F4#2E3606350F0010
(1703560170.083683) can0 181056F4#A510580E02
(1703560170.096457) can0 1812F456#080F3A0E0000FD
(1703560170.130648) can0 181056F4#A510580E02
(1703560170.164421) can0 1812F456#080F3A0E0000FD
(1703560170.180629) can0 181056F4#A510580E02
(1703560170.231026) can0 181056F4#A510580E02
(1703560170.232905) can0 1812F456#080F3A0E0000FD
(1703560170.240599) can0 1CEC56F4#10090002FF001100
(1703560170.242123) can0 1CECF456#110201FFFF001100
(1703560170.250334) can0 1CEB56F4#01FE0E590E51E14D
(1703560170.261055) can0 1CEB56F4#022B00FFFFFFFFFF
(1703560170.261528) can0 1CECF456#13090002FF001100
(1703560170.281666) can0 181056F4#A510580E02
(1703560170.306264) can0 1812F456#080F3A0E0000FD
(1703560170.311178) can0 181356F4#2E3606350F0010
(1703560170.330603) can0 181056F4#A510580E02
(1703560170.370812) can0 1812F456#080F3A0E0000FD
(1703560170.384345) can0 181056F4#A510580E02
(1703560170.430644) can0 181056F4#A510580E02
(1703560170.439499) can0 1812F456#090F3E0E0000FD
(1703560170.480502) can0 181056F4#A510580E02
(1703560170.490823) can0 1CEC56F4#10090002FF001100
(1703560170.492166) can0 1CECF456#110201FFFF001100
(1703560170.500209) can0 1CEB56F4#01FF0E5C0E51E14D
(1703560170.508366) can0 1812F456#090F3E0E0000FD
(1703560170.510189) can0 1CEB56F4#022B00FFFFFFFFFF
(1703560170.510984) can0 1CECF456#13090002FF001100
(1703560170.530448) can0 181056F4#A510580E02
(1703560170.561019) can0 181356F4#3C360635110010
(1703560170.577431) can0 1812F456#090F3E0E0000FD
(1703560170.582942) can0 181056F4#A510580E02
(1703560170.631164) can0 181056F4#A510580E02
(1703560170.646335) can0 1812F456#090F3E0E0000FD
(1703560170.680807) can0 181056F4#A510580E02
(1703560170.714862) can0 1812F456#090F3E0E0000FD
(1703560170.731689) can0 181056F4#A510580E02
(1703560170.741574) can0 1CEC56F4#10090002FF001100
(1703560170.741917) can0 1CECF456#110201FFFF001100
(1703560170.750385) can0 1CEB56F4#01FE0E4F0E51A14D
(1703560170.760590) can0 1CEB56F4#022B00FFFFFFFFFF
(1703560170.761947) can0 1CECF456#13090002FF001100
(1703560170.780858) can0 181056F4#A510580E02
(1703560170.793441) can0 1812F456#090F3E0E0000FD
(1703560170.817624) can0 181356F4#2A3606350F0010
(1703560170.830366) can0 181056F4#A510580E02
(1703560170.854117) can0 1812F456#090F3E0E0000FD
(1703560170.880738) can0 181056F4#A510580E02
(1703560170.922308) can0 1812F456#090F3E0E0000FD
(1703560170.931413) can0 181056F4#A510580E02
(1703560170.982144) can0 181056F4#A510580E02
(1703560170.991824) can0 1CEC56F4#10090002FF001100
(1703560170.992121) can0 1CECF456#110201FFFF001100
(1703560170.992597) can0 1812F456#090F3E0E0000FD
(1703560171.000228) can0 1CEB56F4#01FE0E590E51C14D
(1703560171.010169) can0 1CEB56F4#022B00FFFFFFFFFF
(1703560171.012445) can0 1CECF456#13090002FF001100
(1703560171.030400) can0 181056F4#A510580E02
(1703560171.065661) can0 1812F456#090F3E0E0000FD
(1703560171.065813) can0 181356F4#2E3606350F0010
(1703560171.081445) can0 181056F4#A510580E02
(1703560171.130556) can0 1812F456#090F3E0E0000FD
(1703560171.130874) can0 181056F4#A510580E02
(1703560171.181681) can0 181056F4#A510580E02
(1703560171.197619) can0 1812F456#090F3E0E0000FD
(1703560171.230509) can0 181056F4#A510580E02
(1703560171.240692) can0 1CEC56F4#10090002FF001100
(1703560171.241606) can0 1CECF456#110201FFFF001100
(1703560171.251074) can0 1CEB56F4#01FE0E570E51E14D
(1703560171.263645) can0 1CEB56F4#022B00FFFFFFFFFF
(1703560171.263740) can0 1CECF456#13090002FF001100
(1703560171.266898) can0 1812F456#090F3E0E0000FD
(1703560171.281048) can0 181056F4#A510580E02
(1703560171.311551) can0 181356F4#2E3606350F0010
(1703560171.330571) can0 181056F4#A510580E02
(1703560171.335219) can0 1812F456#090F3E0E0000FD
(1703560171.384437) can0 181056F4#A510580E02
(1703560171.408682) can0 1812F456#090F3E0E0000FD
(1703560171.431463) can0 181056F4#A510580E02
(1703560171.473197) can0 1812F456#090F3E0E0000FD
(1703560171.480683) can0 181056F4#A510580E02
(1703560171.491615) can0 1CEC56F4#10090002FF001100
(1703560171.492000) can0 1CECF456#110201FFFF001100
(1703560171.506318) can0 1CEB56F4#01FD0E570E51314D
(1703560171.510083) can0 1CEB56F4#022B00FFFFFFFFFF
(1703560171.511604) can0 1CECF456#13090002FF001100
(1703560171.531337) can0 181056F4#A510580E02
(1703560171.550677) can0 1812F456#090F3E0E0000FD
(1703560171.561621) can0 181356F4#3C360635180010
(1703560171.580828) can0 181056F4#A510580E02
(1703560171.611152) can0 1812F456#050F580E0000FD
(1703560171.637572) can0 181056F4#A510580E02
(1703560171.680821) can0 181056F4#A510580E02
(1703560171.681149) can0 1812F456#050F580E0000FD
(1703560171.730471) can0 181056F4#A510580E02
(1703560171.742154) can0 1CEC56F4#10090002FF001100
(1703560171.742455) can0 1CECF456#110201FFFF001100
(1703560171.751084) can0 1CEB56F4#01FE0E5E0E51414D
(1703560171.751250) can0 1812F456#050F580E0000FD
(1703560171.760152) can0 1CEB56F4#022B00FFFFFFFFFF
(1703560171.761483) can0 1CECF456#13090002FF001100
(1703560171.780282) can0 181056F4#A510580E02
(1703560171.811420) can0 181356F4#3C360635180010
(1703560171.819750) can0 1812F456#050F580E0000FD
(1703560171.830963) can0 181056F4#A510580E02
(1703560171.885112) can0 181056F4#A510580E02
(1703560171.893119) can0 1812F456#050F580E0000FD
(1703560171.931727) can0 181056F4#A510580E02
(1703560171.958472) can0 1812F456#050F580E0000FD
(1703560171.981654) can0 181056F4#A510580E02
(1703560171.992066) can0 1CEC56F4#10090002FF001100
(1703560171.992272) can0 1CECF456#110201FFFF001100
(1703560172.001093) can0 1CEB56F4#01000F620E51814D
(1703560172.012497) can0 1CEB56F4#022B00FFFFFFFFFF
(1703560172.012756) can0 1CECF456#13090002FF001100
(1703560172.028712) can0 1812F456#050F580E0000FD
(1703560172.033931) can0 181056F4#A510580E02
(1703560172.060682) can0 181356F4#3D3606350F0010
(1703560172.080576) can0 181056F4#A510580E02
(1703560172.095450) can0 1812F456#050F580E0000FD
(1703560172.137064) can0 181056F4#A510580E02
(1703560172.166267) can0 1812F456#050F580E0000FD
(1703560172.184869) can0 181056F4#A510580E02
(1703560172.230309) can0 181056F4#A510580E02
(1703560172.232889) can0 1812F456#050F580E0000FD
(1703560172.240767) can0 1CEC56F4#10090002FF001100
(1703560172.242061) can0 1CECF456#110201FFFF001100
(1703560172.251284) can0 1CEB56F4#01FD0E5F0E51E14D
(1703560172.260389) can0 1CEB56F4#022B00FFFFFFFFFF
(1703560172.261547) can0 1CECF456#13090002FF001100
(1703560172.281584) can0 181056F4#A510580E02
(1703560172.301746) can0 1812F456#050F580E0000FD
(1703560172.320024) can0 181356F4#3C360635110010
(1703560172.330437) can0 181056F4#A510580E02
(1703560172.370924) can0 1812F456#050F580E0000FD
(1703560172.380965) can0 181056F4#A510580E02
(1703560172.430428) can0 181056F4#A510580E02
(1703560172.439254) can0 1812F456#050F580E0000FD
(1703560172.480506) can0 181056F4#A510580E02
(1703560172.492127) can0 1CEC56F4#10090002FF001100
(1703560172.492506) can0 1CECF456#110201FFFF001100
(1703560172.500149) can0 1CEB56F4#01FD0E5C0E51E14D
(1703560172.508200) can0 1812F456#050F580E0000FD
(1703560172.510159) can0 1CEB56F4#022B00FFFFFFFFFF
(1703560172.511553) can0 1CECF456#13090002FF001100
(1703560172.535634) can0 181056F4#A510580E02
(1703560172.561166) can0 181356F4#403606350F0010
(1703560172.577328) can0 1812F456#050F580E0000FD
(1703560172.591937) can0 181056F4#A510580E02
(1703560172.631997) can0 181056F4#A510580E02
(1703560172.645732) can0 1812F456#050F580E0000FD
(1703560172.682941) can0 181056F4#A510580E02
(1703560172.715546) can0 1812F456#050F580E0000FD
(1703560172.736446) can0 181056F4#A510580E02
(1703560172.740386) can0 1CEC56F4#10090002FF001100
(1703560172.741842) can0 1CECF456#110201FFFF001100
(1703560172.754488) can0 1CEB56F4#01FE0E5A0E51414D
(1703560172.760637) can0 1CEB56F4#022B00FFFFFFFFFF
(1703560172.761880) can0 1CECF456#13090002FF001100
(1703560172.781319) can0 181056F4#A510580E02
(1703560172.784706) can0 1812F456#050F580E0000FD
(1703560172.811262) can0 181356F4#533606350F0010
(1703560172.832190) can0 181056F4#A510580E02
(1703560172.856978) can0 0073F4B5#5500
(1703560172.857156) can0 101AF456#0400F0F0
(1703560172.863981) can0 101AF456#0400F0F0
(1703560172.875004) can0 101956F4#40000000
(1703560172.882870) can0 101AF456#0400F0F0
(1703560172.883062) can0 101956F4#40000000
(1703560172.890817) can0 101956F4#40000000
(1703560172.893935) can0 101AF456#0400F0F0
(1703560172.902376) can0 101956F4#40000000
(1703560172.907007) can0 101AF456#0400F0F0
(1703560172.910349) can0 101956F4#40000000
(1703560172.920489) can0 101956F4#40000000
(1703560172.921634) can0 101AF456#0400F0F0
(1703560172.930350) can0 101956F4#40000000
(1703560172.937421) can0 101AF456#0400F0F0
(1703560172.941944) can0 101956F4#40000000
(1703560172.950562) can0 101956F4#40000000
(1703560172.950914) can0 101AF456#0400F0F0
(1703560172.960290) can0 101956F4#40000000
(1703560172.967338) can0 101AF456#0400F0F0
(1703560172.980947) can0 101AF456#0400F0F0
(1703560172.994713) can0 101AF456#0400F0F0
(1703560173.015071) can0 101AF456#0400F0F0
(1703560173.024771) can0 101AF456#0400F0F0
(1703560173.039933) can0 101AF456#0400F0F0
(1703560173.055949) can0 101AF456#0400F0F0
(1703560173.067583) can0 101AF456#0400F0F0
(1703560173.081989) can0 101AF456#0400F0F0
(1703560173.101233) can0 101AF456#0400F0F0
(1703560173.111203) can0 101AF456#0400F0F0
(1703560173.126435) can0 101AF456#0400F0F0
(1703560173.142203) can0 101AF456#0400F0F0
(1703560173.155261) can0 101AF456#0400F0F0
(1703560173.173151) can0 101AF456#0400F0F0
(1703560173.185940) can0 101AF456#0400F0F0
(1703560173.199670) can0 101AF456#0400F0F0
(1703560173.213584) can0 101AF456#0400F0F0
(1703560173.221064) can0 181C56F4#4D4D014E013536
(1703560173.223061) can0 181DF456#0000010001010101
(1703560173.247392) can0 0070F4B5#0000B5
(1703560173.475078) can0 181C56F4#4D4D014E013536
(1703560173.555833) can0 181DF456#0000010001010101
(1703560173.747385) can0 0070F4B5#0000B5
(1703560173.770376) can0 181C56F4#4D4D014E013536
(1703560173.889554) can0 181DF456#0000010001010101
(1703560174.020457) can0 181C56F4#4D4D014D013536
(1703560174.220833) can0 181DF456#0000010001010101
(1703560174.247008) can0 0070F4B5#0000B5
(1703560174.273717) can0 181C56F4#4D4D014D013536
(1703560174.747866) can0 0070F4B5#0000B5
(1703560175.248329) can0 0070F4B5#0000B5
(1703560175.746780) can0 0070F4B5#0000B5
(1703560176.246563) can0 0070F4B5#0000B5
(1703560176.747161) can0 0070F4B5#0000B5
(1703560177.247302) can0 0070F4B5#0000B5
(1703560177.747582) can0 0070F4B5#0000B5
(1703560178.246442) can0 0070F4B5#0000B5
(1703560178.746937) can0 0070F4B5#0000B5
(1703560179.246959) can0 0070F4B5#0000B5
(1703560179.747774) can0 0070F4B5#0000B5
(1703560180.246513) can0 0070F4B5#0000B5
(1703560180.747305) can0 0070F4B5#0000B5
(1703560181.247427) can0 0070F4B5#0000B5
(1703560181.751114) can0 0070F4B5#0000B5
(1703560182.247642) can0 0070F4B5#0000B5
(1703560182.747033) can0 0070F4B5#0000B5
(1703560183.246656) can0 0070F4B5#0000B5
(1703560183.746971) can0 0070F4B5#0000B5
(1703560184.248316) can0 0070F4B5#0000B5
(1703560184.747652) can0 0070F4B5#0000B5
(1703560185.247162) can0 0070F4B5#0000B5
(1703560185.752067) can0 0070F4B5#0000B5
(1703560186.249653) can0 0070F4B5#0000B5
(1703560186.746868) can0 0070F4B5#0000B5
(1703560187.246488) can0 0070F4B5#0000B5
(1703560187.747065) can0 0070F4B5#0000B5
